***BUSMASTER Ver 3.2.2***
***PROTOCOL CAN***
***NOTE: PLEASE DO NOT EDIT THIS DOCUMENT***
***[START LOGGING SESSION]***
***START DATE AND TIME 29:7:2024 10:19:21:53***
***HEX***
***SYSTEM MODE***
***START CHANNEL BAUD RATE***
***CHANNEL 1 - PCAN-USB Driver Id 16 - 500000 bps***
***END CHANNEL BAUD RATE***
***START DATABASE FILES***
***C:\Users\Gus\Downloads\candatafile.dbf***
***END DATABASE FILES***
***<Time><Tx/Rx><Channel><CAN ID><Type><DLC><DataBytes>***
10:19:21:0564 Rx 1 0x113 s 8 7E A3 0B 00 71 A6 0B 00 
10:19:21:0566 Rx 1 0x114 s 8 00 00 00 00 00 08 80 00 
10:19:21:0569 Rx 1 0x115 s 8 00 00 00 00 00 08 00 00 
10:19:21:0571 Rx 1 0x116 s 8 00 00 00 00 00 00 00 00 
10:19:21:0574 Rx 1 0x118 s 8 06 CB 06 C8 06 A0 06 84 
10:19:21:0576 Rx 1 0x120 s 8 81 06 09 A9 08 4E FF E1 
10:19:21:0578 Rx 1 0x121 s 8 69 83 0A C8 07 22 15 3E 
10:19:21:0579 Rx 1 0x630 s 1 F0 
10:19:21:0582 Rx 1 0x117 s 8 06 00 00 00 00 00 00 00 
10:19:21:0590 Rx 1 0x620 s 3 02 0A 03 
10:19:21:0592 Rx 1 0x621 s 8 9A 19 7E 43 89 41 64 41 
10:19:21:0594 Rx 1 0x622 s 7 58 22 80 41 31 00 57 
10:19:21:0596 Rx 1 0x623 s 7 76 D0 10 42 10 00 53 
10:19:21:0598 Rx 1 0x624 s 4 33 93 40 44 
10:19:21:0600 Rx 1 0x625 s 8 EC 51 F8 3F E1 7A 54 3F 
10:19:21:0602 Rx 1 0x100 s 8 F6 7D 00 00 00 00 22 00 
10:19:21:0605 Rx 1 0x102 s 8 00 00 FF 00 3A 00 00 00 
10:19:21:0608 Rx 1 0x110 s 8 00 00 00 00 00 00 00 00 
10:19:21:0610 Rx 1 0x111 s 8 E7 53 02 00 00 00 00 00 
10:19:21:0612 Rx 1 0x112 s 8 03 03 22 22 03 03 02 02 
10:19:21:0614 Rx 1 0x113 s 8 83 A3 0B 00 76 A6 0B 00 
10:19:21:0617 Rx 1 0x114 s 8 00 00 00 00 00 08 80 00 
10:19:21:0620 Rx 1 0x115 s 8 00 00 00 00 00 08 00 00 
10:19:21:0622 Rx 1 0x116 s 8 00 00 00 00 00 00 00 00 
10:19:21:0624 Rx 1 0x118 s 8 06 CB 06 C8 06 A0 06 84 
10:19:21:0627 Rx 1 0x120 s 8 81 06 09 A9 08 4E FF E1 
10:19:21:0629 Rx 1 0x121 s 8 69 83 0A C8 07 22 15 3E 
10:19:21:0631 Rx 1 0x626 s 4 00 00 E0 3F 
10:19:21:0633 Rx 1 0x117 s 8 06 00 00 00 00 00 00 00 
10:19:21:0635 Rx 1 0x627 s 6 18 07 1D 0D 13 13 
10:19:21:0651 Rx 1 0x100 s 8 11 7E 00 00 00 00 22 00 
10:19:21:0654 Rx 1 0x102 s 8 00 00 FF 00 3A 00 00 00 
10:19:21:0656 Rx 1 0x110 s 8 00 00 00 00 00 00 00 00 
10:19:21:0658 Rx 1 0x111 s 8 E8 53 02 00 00 00 00 00 
10:19:21:0661 Rx 1 0x112 s 8 03 03 22 22 03 03 02 02 
10:19:21:0663 Rx 1 0x113 s 8 88 A3 0B 00 7B A6 0B 00 
10:19:21:0666 Rx 1 0x114 s 8 00 00 00 00 00 08 80 00 
10:19:21:0668 Rx 1 0x115 s 8 00 00 00 00 00 08 00 00 
10:19:21:0671 Rx 1 0x116 s 8 00 00 00 00 00 00 00 00 
10:19:21:0673 Rx 1 0x118 s 8 06 CA 06 CE 06 A0 06 86 
10:19:21:0675 Rx 1 0x120 s 8 81 06 09 A9 08 4E FF E1 
10:19:21:0678 Rx 1 0x121 s 8 69 83 0A C8 07 22 15 3E 
10:19:21:0682 Rx 1 0x117 s 8 06 00 00 00 00 00 00 00 
10:19:21:0701 Rx 1 0x100 s 8 4C 7F 00 00 00 00 22 00 
10:19:21:0704 Rx 1 0x102 s 8 00 00 FF 00 3A 00 00 00 
10:19:21:0706 Rx 1 0x110 s 8 00 00 00 00 00 00 00 00 
10:19:21:0709 Rx 1 0x111 s 8 E9 53 02 00 00 00 00 00 
10:19:21:0711 Rx 1 0x112 s 8 03 03 22 22 03 03 02 02 
10:19:21:0713 Rx 1 0x113 s 8 8D A3 0B 00 80 A6 0B 00 
10:19:21:0716 Rx 1 0x114 s 8 00 00 00 00 00 08 80 00 
10:19:21:0719 Rx 1 0x115 s 8 00 00 00 00 00 08 00 00 
10:19:21:0721 Rx 1 0x116 s 8 00 00 00 00 00 00 00 00 
10:19:21:0723 Rx 1 0x118 s 8 06 CA 06 CE 06 A0 06 86 
10:19:21:0725 Rx 1 0x120 s 8 81 06 09 A9 08 4E FF E1 
10:19:21:0728 Rx 1 0x121 s 8 69 83 0A C8 07 22 15 3E 
10:19:21:0732 Rx 1 0x117 s 8 06 00 00 00 00 00 00 00 
10:19:21:0752 Rx 1 0x100 s 8 B9 80 00 00 00 00 22 00 
10:19:21:0754 Rx 1 0x102 s 8 00 00 FF 00 3A 00 00 00 
10:19:21:0757 Rx 1 0x110 s 8 00 00 00 00 00 00 00 00 
10:19:21:0759 Rx 1 0x111 s 8 EA 53 02 00 00 00 00 00 
10:19:21:0761 Rx 1 0x112 s 8 03 03 22 22 03 03 02 02 
10:19:21:0764 Rx 1 0x113 s 8 92 A3 0B 00 85 A6 0B 00 
10:19:21:0766 Rx 1 0x114 s 8 00 00 00 00 00 08 80 00 
10:19:21:0768 Rx 1 0x115 s 8 00 00 00 00 00 08 00 00 
10:19:21:0771 Rx 1 0x116 s 8 00 00 00 00 00 00 00 00 
10:19:21:0774 Rx 1 0x118 s 8 06 CA 06 CE 06 A0 06 86 
10:19:21:0776 Rx 1 0x120 s 8 81 06 09 A9 08 4E FF E1 
10:19:21:0778 Rx 1 0x121 s 8 69 83 0A C8 07 22 15 3E 
10:19:21:0782 Rx 1 0x117 s 8 06 00 00 00 00 00 00 00 
10:19:21:0800 Rx 1 0x100 s 8 E4 81 00 00 00 00 22 00 
10:19:21:0803 Rx 1 0x102 s 8 00 00 FF 00 39 00 00 00 
10:19:21:0805 Rx 1 0x110 s 8 00 00 00 00 00 00 00 00 
10:19:21:0808 Rx 1 0x111 s 8 EB 53 02 00 00 00 00 00 
10:19:21:0810 Rx 1 0x112 s 8 03 03 22 22 03 03 02 02 
10:19:21:0812 Rx 1 0x113 s 8 97 A3 0B 00 8A A6 0B 00 
10:19:21:0815 Rx 1 0x114 s 8 00 00 00 00 00 08 80 00 
10:19:21:0817 Rx 1 0x115 s 8 00 00 00 00 00 08 00 00 
10:19:21:0820 Rx 1 0x116 s 8 00 00 00 00 00 00 00 00 
10:19:21:0822 Rx 1 0x118 s 8 06 C3 06 C6 06 94 06 89 
10:19:21:0824 Rx 1 0x120 s 8 81 06 08 A9 08 4E FF E1 
10:19:21:0826 Rx 1 0x121 s 8 69 83 0A C8 07 22 15 3E 
10:19:21:0828 Rx 1 0x630 s 1 F0 
10:19:21:0832 Rx 1 0x117 s 8 06 00 00 00 00 00 00 00 
10:19:21:0850 Rx 1 0x100 s 8 03 82 00 00 00 00 22 00 
10:19:21:0853 Rx 1 0x102 s 8 00 00 FF 00 39 00 00 00 
10:19:21:0855 Rx 1 0x110 s 8 00 00 00 00 00 00 00 00 
10:19:21:0858 Rx 1 0x111 s 8 EC 53 02 00 00 00 00 00 
10:19:21:0860 Rx 1 0x112 s 8 03 03 22 22 03 03 02 02 
10:19:21:0863 Rx 1 0x113 s 8 9C A3 0B 00 8F A6 0B 00 
10:19:21:0865 Rx 1 0x114 s 8 00 00 00 00 00 08 80 00 
10:19:21:0867 Rx 1 0x115 s 8 00 00 00 00 00 08 00 00 
10:19:21:0870 Rx 1 0x116 s 8 00 00 00 00 00 00 00 00 
10:19:21:0872 Rx 1 0x118 s 8 06 C3 06 C6 06 94 06 89 
10:19:21:0875 Rx 1 0x120 s 8 81 06 08 A9 08 4E FF E1 
10:19:21:0877 Rx 1 0x121 s 8 69 83 0A C8 07 22 15 3E 
10:19:21:0883 Rx 1 0x117 s 8 06 00 00 00 00 00 00 00 
10:19:21:0895 Rx 1 0x610 s 8 9A 99 C9 3E 7B 14 96 3F 
10:19:21:0896 Rx 1 0x611 s 4 9A 99 11 C0 
10:19:21:0907 Rx 1 0x118 s 8 06 C3 06 C6 06 94 06 89 
10:19:21:0910 Rx 1 0x100 s 8 5E 83 00 00 00 00 22 00 
10:19:21:0912 Rx 1 0x102 s 8 00 00 FF 00 38 00 00 00 
10:19:21:0915 Rx 1 0x110 s 8 00 00 00 00 00 00 00 00 
10:19:21:0917 Rx 1 0x111 s 8 ED 53 02 00 00 00 00 00 
10:19:21:0919 Rx 1 0x112 s 8 03 03 22 22 03 03 02 02 
10:19:21:0922 Rx 1 0x113 s 8 A1 A3 0B 00 94 A6 0B 00 
10:19:21:0924 Rx 1 0x114 s 8 00 00 00 00 00 08 80 00 
10:19:21:0927 Rx 1 0x115 s 8 00 00 00 00 00 08 00 00 
10:19:21:0929 Rx 1 0x116 s 8 00 00 00 00 00 00 00 00 
10:19:21:0931 Rx 1 0x120 s 8 81 06 08 A9 08 4E FF E1 
10:19:21:0934 Rx 1 0x117 s 8 06 00 00 00 00 00 00 00 
10:19:21:0936 Rx 1 0x121 s 8 69 83 0A C8 07 22 15 3E 
10:19:21:0957 Rx 1 0x118 s 8 06 CD 06 BE 06 80 06 7E 
10:19:21:0960 Rx 1 0x100 s 8 D0 84 00 00 00 00 22 00 
10:19:21:0963 Rx 1 0x102 s 8 00 00 FF 00 38 00 00 00 
10:19:21:0965 Rx 1 0x110 s 8 00 00 00 00 00 00 00 00 
10:19:21:0967 Rx 1 0x111 s 8 EE 53 02 00 00 00 00 00 
10:19:21:0970 Rx 1 0x112 s 8 03 03 22 22 03 03 02 02 
10:19:21:0972 Rx 1 0x113 s 8 A6 A3 0B 00 99 A6 0B 00 
10:19:21:0975 Rx 1 0x114 s 8 00 00 00 00 00 08 80 00 
10:19:21:0977 Rx 1 0x115 s 8 00 00 00 00 00 08 00 00 
10:19:21:0980 Rx 1 0x116 s 8 00 00 00 00 00 00 00 00 
10:19:21:0982 Rx 1 0x120 s 8 81 06 08 A9 08 4E FF E1 
10:19:21:0984 Rx 1 0x117 s 8 06 00 00 00 00 00 00 00 
10:19:21:0986 Rx 1 0x121 s 8 68 83 0A C8 07 22 15 3E 
10:19:21:1007 Rx 1 0x118 s 8 06 CD 06 BE 06 80 06 7E 
10:19:21:1010 Rx 1 0x100 s 8 8D 85 00 00 00 00 22 00 
10:19:21:1013 Rx 1 0x102 s 8 00 00 FF 00 38 00 00 00 
10:19:21:1015 Rx 1 0x110 s 8 00 00 00 00 00 00 00 00 
10:19:21:1018 Rx 1 0x111 s 8 EF 53 02 00 00 00 00 00 
10:19:21:1020 Rx 1 0x112 s 8 03 03 22 22 03 03 02 02 
10:19:21:1023 Rx 1 0x113 s 8 AB A3 0B 00 9E A6 0B 00 
10:19:21:1025 Rx 1 0x114 s 8 00 00 00 00 00 08 80 00 
10:19:21:1027 Rx 1 0x115 s 8 00 00 00 00 00 08 00 00 
10:19:21:1030 Rx 1 0x116 s 8 00 00 00 00 00 00 00 00 
10:19:21:1032 Rx 1 0x120 s 8 8C 06 07 A9 08 4E FF E1 
10:19:21:1035 Rx 1 0x117 s 8 06 00 00 00 00 00 00 00 
10:19:21:1037 Rx 1 0x121 s 8 68 83 0A C8 07 22 15 3E 
10:19:21:1039 Rx 1 0x600 s 8 F0 FF 06 00 03 00 18 03 
10:19:21:1042 Rx 1 0x601 s 6 64 FF AB 00 E1 00 
10:19:21:1052 Rx 1 0x630 s 1 F0 
10:19:21:1057 Rx 1 0x118 s 8 06 CD 06 BE 06 80 06 7E 
10:19:21:1059 Rx 1 0x100 s 8 6A 86 00 00 00 00 22 00 
10:19:21:1062 Rx 1 0x102 s 8 00 00 FF 00 37 00 00 00 
10:19:21:1065 Rx 1 0x110 s 8 00 00 00 00 00 00 00 00 
10:19:21:1067 Rx 1 0x111 s 8 F0 53 02 00 00 00 00 00 
10:19:21:1069 Rx 1 0x112 s 8 03 03 22 22 03 03 02 02 
10:19:21:1071 Rx 1 0x113 s 8 B0 A3 0B 00 A3 A6 0B 00 
10:19:21:1074 Rx 1 0x114 s 8 00 00 00 00 00 08 80 00 
10:19:21:1077 Rx 1 0x115 s 8 00 00 00 00 00 08 00 00 
10:19:21:1079 Rx 1 0x116 s 8 00 00 00 00 00 00 00 00 
10:19:21:1081 Rx 1 0x120 s 8 8C 06 07 A9 08 4E FF E1 
10:19:21:1084 Rx 1 0x117 s 8 06 00 00 00 00 00 00 00 
10:19:21:1086 Rx 1 0x121 s 8 68 83 0A C8 07 22 15 3E 
10:19:21:1107 Rx 1 0x118 s 8 06 CD 06 BC 06 70 06 74 
10:19:21:1110 Rx 1 0x100 s 8 37 87 00 00 00 00 22 00 
10:19:21:1112 Rx 1 0x102 s 8 00 00 FF 00 37 00 00 00 
10:19:21:1114 Rx 1 0x110 s 8 00 00 00 00 00 00 00 00 
10:19:21:1117 Rx 1 0x111 s 8 F1 53 02 00 00 00 00 00 
10:19:21:1119 Rx 1 0x112 s 8 03 03 22 22 03 03 02 02 
10:19:21:1122 Rx 1 0x113 s 8 B5 A3 0B 00 A8 A6 0B 00 
10:19:21:1124 Rx 1 0x114 s 8 00 00 00 00 00 08 80 00 
10:19:21:1126 Rx 1 0x115 s 8 00 00 00 00 00 08 00 00 
10:19:21:1129 Rx 1 0x116 s 8 00 00 00 00 00 00 00 00 
10:19:21:1131 Rx 1 0x120 s 8 8C 06 07 A9 08 4E FF E1 
10:19:21:1134 Rx 1 0x117 s 8 06 00 00 00 00 00 00 00 
10:19:21:1136 Rx 1 0x121 s 8 68 83 0A C8 07 22 15 3E 
10:19:21:1157 Rx 1 0x118 s 8 06 CD 06 BC 06 70 06 74 
10:19:21:1160 Rx 1 0x100 s 8 6B 88 00 00 00 00 22 00 
10:19:21:1162 Rx 1 0x102 s 8 00 00 FF 00 36 00 00 00 
10:19:21:1165 Rx 1 0x110 s 8 00 00 00 00 00 00 00 00 
10:19:21:1167 Rx 1 0x111 s 8 F2 53 02 00 00 00 00 00 
10:19:21:1170 Rx 1 0x112 s 8 03 03 22 22 03 03 02 02 
10:19:21:1172 Rx 1 0x113 s 8 BA A3 0B 00 AD A6 0B 00 
10:19:21:1174 Rx 1 0x114 s 8 00 00 00 00 00 08 80 00 
10:19:21:1177 Rx 1 0x115 s 8 00 00 00 00 00 08 00 00 
10:19:21:1179 Rx 1 0x116 s 8 00 00 00 00 00 00 00 00 
10:19:21:1181 Rx 1 0x120 s 8 8C 06 07 A9 08 4E FF E1 
10:19:21:1184 Rx 1 0x117 s 8 06 00 00 00 00 00 00 00 
10:19:21:1186 Rx 1 0x121 s 8 68 83 0A C8 07 22 15 3E 
10:19:21:1207 Rx 1 0x118 s 8 06 D2 06 BC 06 70 06 74 
10:19:21:1210 Rx 1 0x100 s 8 36 89 00 00 00 00 22 00 
10:19:21:1213 Rx 1 0x102 s 8 00 00 FF 00 36 00 00 00 
10:19:21:1215 Rx 1 0x110 s 8 00 00 00 00 00 00 00 00 
10:19:21:1217 Rx 1 0x111 s 8 F3 53 02 00 00 00 00 00 
10:19:21:1220 Rx 1 0x112 s 8 03 03 22 22 03 03 02 02 
10:19:21:1222 Rx 1 0x113 s 8 BF A3 0B 00 B2 A6 0B 00 
10:19:21:1225 Rx 1 0x114 s 8 00 00 00 00 00 08 80 00 
10:19:21:1227 Rx 1 0x115 s 8 00 00 00 00 00 08 00 00 
10:19:21:1230 Rx 1 0x116 s 8 00 00 00 00 00 00 00 00 
10:19:21:1232 Rx 1 0x120 s 8 8C 06 06 A9 08 4E FF E1 
10:19:21:1234 Rx 1 0x117 s 8 06 00 00 00 00 00 00 00 
10:19:21:1237 Rx 1 0x121 s 8 68 83 0A C8 07 22 15 3E 
10:19:21:1257 Rx 1 0x118 s 8 06 D2 06 B8 06 70 06 77 
10:19:21:1260 Rx 1 0x100 s 8 D1 8A 00 00 00 00 22 00 
10:19:21:1263 Rx 1 0x102 s 8 00 00 FF 00 35 00 00 00 
10:19:21:1265 Rx 1 0x110 s 8 00 00 00 00 00 00 00 00 
10:19:21:1267 Rx 1 0x111 s 8 F4 53 02 00 00 00 00 00 
10:19:21:1270 Rx 1 0x112 s 8 03 03 22 22 03 03 02 02 
10:19:21:1272 Rx 1 0x113 s 8 C4 A3 0B 00 B7 A6 0B 00 
10:19:21:1274 Rx 1 0x114 s 8 00 00 00 00 00 08 80 00 
10:19:21:1277 Rx 1 0x115 s 8 00 00 00 00 00 08 00 00 
10:19:21:1279 Rx 1 0x116 s 8 00 00 00 00 00 00 00 00 
10:19:21:1282 Rx 1 0x120 s 8 8C 06 06 A9 08 4E FF E1 
10:19:21:1284 Rx 1 0x117 s 8 06 00 00 00 00 00 00 00 
10:19:21:1286 Rx 1 0x121 s 8 68 83 0A C8 07 22 15 3E 
10:19:21:1302 Rx 1 0x630 s 1 F0 
10:19:21:1307 Rx 1 0x118 s 8 06 D2 06 B8 06 70 06 77 
10:19:21:1310 Rx 1 0x100 s 8 8C 8B 00 00 00 00 22 00 
10:19:21:1312 Rx 1 0x102 s 8 00 00 FF 00 35 00 00 00 
10:19:21:1315 Rx 1 0x110 s 8 00 00 00 00 00 00 00 00 
10:19:21:1317 Rx 1 0x111 s 8 F5 53 02 00 00 00 00 00 
10:19:21:1319 Rx 1 0x112 s 8 03 03 22 22 03 03 02 02 
10:19:21:1322 Rx 1 0x113 s 8 C9 A3 0B 00 BC A6 0B 00 
10:19:21:1324 Rx 1 0x114 s 8 00 00 00 00 00 08 80 00 
10:19:21:1327 Rx 1 0x115 s 8 00 00 00 00 00 08 00 00 
10:19:21:1329 Rx 1 0x116 s 8 00 00 00 00 00 00 00 00 
10:19:21:1332 Rx 1 0x120 s 8 8C 06 06 A9 08 4E FF E1 
10:19:21:1334 Rx 1 0x121 s 8 68 83 0A C8 07 22 15 3E 
10:19:21:1336 Rx 1 0x117 s 8 06 00 00 00 00 00 00 00 
10:19:21:1357 Rx 1 0x118 s 8 06 D6 06 B8 06 70 06 77 
10:19:21:1360 Rx 1 0x100 s 8 02 8C 00 00 00 00 22 00 
10:19:21:1362 Rx 1 0x102 s 8 00 00 FF 00 34 00 00 00 
10:19:21:1365 Rx 1 0x110 s 8 00 00 00 00 00 00 00 00 
10:19:21:1367 Rx 1 0x111 s 8 F6 53 02 00 00 00 00 00 
10:19:21:1370 Rx 1 0x112 s 8 03 03 22 22 03 03 02 02 
10:19:21:1372 Rx 1 0x113 s 8 CE A3 0B 00 C1 A6 0B 00 
10:19:21:1374 Rx 1 0x114 s 8 00 00 00 00 00 08 80 00 
10:19:21:1377 Rx 1 0x115 s 8 00 00 00 00 00 08 00 00 
10:19:21:1379 Rx 1 0x116 s 8 00 00 00 00 00 00 00 00 
10:19:21:1382 Rx 1 0x120 s 8 8C 06 06 A9 08 4E FF E1 
10:19:21:1384 Rx 1 0x121 s 8 68 83 0A C8 07 22 15 3E 
10:19:21:1386 Rx 1 0x117 s 8 06 00 00 00 00 00 00 00 
10:19:21:1395 Rx 1 0x610 s 8 9A 99 C9 3E 7B 14 96 3F 
10:19:21:1397 Rx 1 0x611 s 4 9A 99 11 C0 
10:19:21:1408 Rx 1 0x118 s 8 06 D6 06 BC 06 6E 06 77 
10:19:21:1410 Rx 1 0x100 s 8 5F 8D 00 00 00 00 22 00 
10:19:21:1412 Rx 1 0x102 s 8 00 00 FF 00 34 00 00 00 
10:19:21:1415 Rx 1 0x110 s 8 00 00 00 00 00 00 00 00 
10:19:21:1417 Rx 1 0x111 s 8 F7 53 02 00 00 00 00 00 
10:19:21:1420 Rx 1 0x112 s 8 03 03 22 22 03 03 02 02 
10:19:21:1422 Rx 1 0x113 s 8 D3 A3 0B 00 C6 A6 0B 00 
10:19:21:1424 Rx 1 0x114 s 8 00 00 00 00 00 08 80 00 
10:19:21:1427 Rx 1 0x115 s 8 00 00 00 00 00 08 00 00 
10:19:21:1429 Rx 1 0x116 s 8 00 00 00 00 00 00 00 00 
10:19:21:1431 Rx 1 0x120 s 8 8C 06 05 A9 08 4E FF E1 
10:19:21:1434 Rx 1 0x121 s 8 68 83 0A C8 07 22 15 3E 
10:19:21:1436 Rx 1 0x117 s 8 06 00 00 00 00 00 00 00 
10:19:21:1458 Rx 1 0x118 s 8 06 D6 06 BC 06 6E 06 79 
10:19:21:1460 Rx 1 0x100 s 8 B8 8E 00 00 00 00 22 00 
10:19:21:1462 Rx 1 0x102 s 8 00 00 FF 00 33 00 00 00 
10:19:21:1465 Rx 1 0x110 s 8 00 00 00 00 00 00 00 00 
10:19:21:1467 Rx 1 0x111 s 8 F8 53 02 00 00 00 00 00 
10:19:21:1469 Rx 1 0x112 s 8 03 03 22 22 03 03 02 02 
10:19:21:1472 Rx 1 0x113 s 8 D8 A3 0B 00 CB A6 0B 00 
10:19:21:1475 Rx 1 0x114 s 8 00 00 00 00 00 08 80 00 
10:19:21:1477 Rx 1 0x115 s 8 00 00 00 00 00 08 00 00 
10:19:21:1479 Rx 1 0x116 s 8 00 00 00 00 00 00 00 00 
10:19:21:1482 Rx 1 0x120 s 8 8C 06 05 A9 08 4E FF E1 
10:19:21:1484 Rx 1 0x121 s 8 68 83 0A C8 07 22 15 3E 
10:19:21:1487 Rx 1 0x117 s 8 06 00 00 00 00 00 00 00 
10:19:21:1507 Rx 1 0x118 s 8 06 DA 06 BC 06 6E 06 79 
10:19:21:1510 Rx 1 0x100 s 8 E5 8F 00 00 00 00 22 00 
10:19:21:1513 Rx 1 0x102 s 8 00 00 FF 00 33 00 00 00 
10:19:21:1515 Rx 1 0x110 s 8 00 00 00 00 00 00 00 00 
10:19:21:1517 Rx 1 0x111 s 8 F9 53 02 00 00 00 00 00 
10:19:21:1520 Rx 1 0x112 s 8 03 03 22 22 03 03 02 02 
10:19:21:1522 Rx 1 0x113 s 8 DD A3 0B 00 D0 A6 0B 00 
10:19:21:1525 Rx 1 0x114 s 8 00 00 00 00 00 08 80 00 
10:19:21:1527 Rx 1 0x115 s 8 00 00 00 00 00 08 00 00 
10:19:21:1530 Rx 1 0x116 s 8 00 00 00 00 00 00 00 00 
10:19:21:1532 Rx 1 0x120 s 8 8C 06 05 A9 08 4E FF E1 
10:19:21:1534 Rx 1 0x121 s 8 68 83 0A C8 07 22 15 3E 
10:19:21:1536 Rx 1 0x117 s 8 06 00 00 00 00 00 00 00 
10:19:21:1552 Rx 1 0x630 s 1 F0 
10:19:21:1558 Rx 1 0x118 s 8 06 DA 06 C0 06 70 06 79 
10:19:21:1560 Rx 1 0x100 s 8 00 90 00 00 00 00 22 00 
10:19:21:1562 Rx 1 0x102 s 8 00 00 FF 00 32 00 00 00 
10:19:21:1565 Rx 1 0x110 s 8 00 00 00 00 00 00 00 00 
10:19:21:1568 Rx 1 0x111 s 8 FA 53 02 00 00 00 00 00 
10:19:21:1570 Rx 1 0x112 s 8 03 03 22 22 03 03 02 02 
10:19:21:1572 Rx 1 0x113 s 8 E2 A3 0B 00 D5 A6 0B 00 
10:19:21:1574 Rx 1 0x114 s 8 00 00 00 00 00 08 80 00 
10:19:21:1577 Rx 1 0x115 s 8 00 00 00 00 00 08 00 00 
10:19:21:1580 Rx 1 0x116 s 8 00 00 00 00 00 00 00 00 
10:19:21:1582 Rx 1 0x120 s 8 8C 06 05 A9 08 4E FF E1 
10:19:21:1584 Rx 1 0x121 s 8 68 83 0A C8 07 22 15 3E 
10:19:21:1587 Rx 1 0x117 s 8 06 00 00 00 00 00 00 00 
10:19:21:1589 Rx 1 0x620 s 3 02 0A 03 
10:19:21:1592 Rx 1 0x621 s 8 9A 19 7E 43 89 41 64 41 
10:19:21:1594 Rx 1 0x622 s 7 58 22 80 41 31 00 57 
10:19:21:1596 Rx 1 0x623 s 7 76 D0 10 42 10 00 53 
10:19:21:1598 Rx 1 0x624 s 4 33 93 40 44 
10:19:21:1600 Rx 1 0x625 s 8 EC 51 F8 3F E1 7A 54 3F 
10:19:21:1602 Rx 1 0x626 s 4 00 00 E0 3F 
10:19:21:1604 Rx 1 0x627 s 6 18 07 1D 0D 13 13 
10:19:21:1608 Rx 1 0x118 s 8 06 DA 06 C0 06 70 06 7E 
10:19:21:1610 Rx 1 0x100 s 8 5D 91 00 00 00 00 22 00 
10:19:21:1612 Rx 1 0x102 s 8 00 00 FF 00 32 00 00 00 
10:19:21:1615 Rx 1 0x110 s 8 00 00 00 00 00 00 00 00 
10:19:21:1618 Rx 1 0x111 s 8 FB 53 02 00 00 00 00 00 
10:19:21:1620 Rx 1 0x112 s 8 03 03 22 22 03 03 02 02 
10:19:21:1622 Rx 1 0x113 s 8 E7 A3 0B 00 DA A6 0B 00 
10:19:21:1625 Rx 1 0x114 s 8 00 00 00 00 00 08 80 00 
10:19:21:1627 Rx 1 0x115 s 8 00 00 00 00 00 08 00 00 
10:19:21:1629 Rx 1 0x116 s 8 00 00 00 00 00 00 00 00 
10:19:21:1632 Rx 1 0x120 s 8 8C 06 04 A9 08 4E FF E1 
10:19:21:1634 Rx 1 0x121 s 8 68 83 0A C8 07 22 15 3E 
10:19:21:1637 Rx 1 0x117 s 8 06 00 00 00 00 00 00 00 
10:19:21:1657 Rx 1 0x100 s 8 BA 92 00 00 00 00 22 00 
10:19:21:1660 Rx 1 0x102 s 8 00 00 FF 00 32 00 00 00 
10:19:21:1662 Rx 1 0x110 s 8 00 00 00 00 00 00 00 00 
10:19:21:1665 Rx 1 0x111 s 8 FC 53 02 00 00 00 00 00 
10:19:21:1667 Rx 1 0x112 s 8 03 03 22 22 03 03 02 02 
10:19:21:1670 Rx 1 0x113 s 8 EC A3 0B 00 DF A6 0B 00 
10:19:21:1672 Rx 1 0x114 s 8 00 00 00 00 00 08 80 00 
10:19:21:1674 Rx 1 0x115 s 8 00 00 00 00 00 08 00 00 
10:19:21:1677 Rx 1 0x116 s 8 00 00 00 00 00 00 00 00 
10:19:21:1679 Rx 1 0x118 s 8 06 DF 06 C0 06 70 06 7E 
10:19:21:1682 Rx 1 0x120 s 8 8C 06 04 A9 08 4E FF E1 
10:19:21:1684 Rx 1 0x121 s 8 68 83 0A C8 07 22 15 3E 
10:19:21:1686 Rx 1 0x117 s 8 06 00 00 00 00 00 00 00 
10:19:21:1708 Rx 1 0x100 s 8 E7 93 00 00 00 00 22 00 
10:19:21:1710 Rx 1 0x102 s 8 00 00 FF 00 31 00 00 00 
10:19:21:1713 Rx 1 0x110 s 8 00 00 00 00 00 00 00 00 
10:19:21:1715 Rx 1 0x111 s 8 FD 53 02 00 00 00 00 00 
10:19:21:1717 Rx 1 0x112 s 8 03 03 22 22 03 03 02 02 
10:19:21:1719 Rx 1 0x113 s 8 F1 A3 0B 00 E4 A6 0B 00 
10:19:21:1722 Rx 1 0x114 s 8 00 00 00 00 00 08 80 00 
10:19:21:1725 Rx 1 0x115 s 8 00 00 00 00 00 08 00 00 
10:19:21:1727 Rx 1 0x116 s 8 00 00 00 00 00 00 00 00 
10:19:21:1729 Rx 1 0x118 s 8 06 DF 06 CD 06 70 06 82 
10:19:21:1732 Rx 1 0x120 s 8 8C 06 04 A9 08 4E FF E1 
10:19:21:1734 Rx 1 0x121 s 8 68 83 0A C8 07 22 15 3E 
10:19:21:1737 Rx 1 0x117 s 8 06 00 00 00 00 00 00 00 
10:19:21:1758 Rx 1 0x100 s 8 69 94 00 00 00 00 22 00 
10:19:21:1760 Rx 1 0x102 s 8 00 00 FF 00 30 00 00 00 
10:19:21:1763 Rx 1 0x110 s 8 00 00 00 00 00 00 00 00 
10:19:21:1765 Rx 1 0x111 s 8 FE 53 02 00 00 00 00 00 
10:19:21:1767 Rx 1 0x112 s 8 03 03 22 22 03 03 02 02 
10:19:21:1770 Rx 1 0x113 s 8 F6 A3 0B 00 E9 A6 0B 00 
10:19:21:1772 Rx 1 0x114 s 8 00 00 00 00 00 08 80 00 
10:19:21:1775 Rx 1 0x115 s 8 00 00 00 00 00 08 00 00 
10:19:21:1777 Rx 1 0x116 s 8 00 00 00 00 00 00 00 00 
10:19:21:1780 Rx 1 0x118 s 8 06 DF 06 CD 06 70 06 82 
10:19:21:1782 Rx 1 0x120 s 8 8C 06 04 A9 08 4E FF E1 
10:19:21:1784 Rx 1 0x121 s 8 68 83 0A C8 07 22 15 3E 
10:19:21:1786 Rx 1 0x117 s 8 06 00 00 00 00 00 00 00 
10:19:21:1789 Rx 1 0x600 s 8 F4 FF 0D 00 14 00 18 03 
10:19:21:1791 Rx 1 0x601 s 6 72 FF 78 00 D4 00 
10:19:21:1802 Rx 1 0x630 s 1 F0 
10:19:21:1807 Rx 1 0x100 s 8 34 95 00 00 00 00 22 00 
10:19:21:1809 Rx 1 0x102 s 8 00 00 FF 00 2F 00 00 00 
10:19:21:1812 Rx 1 0x110 s 8 00 00 00 00 00 00 00 00 
10:19:21:1814 Rx 1 0x111 s 8 FF 53 02 00 00 00 00 00 
10:19:21:1816 Rx 1 0x112 s 8 03 03 22 22 03 03 02 02 
10:19:21:1819 Rx 1 0x113 s 8 FB A3 0B 00 EE A6 0B 00 
10:19:21:1821 Rx 1 0x114 s 8 00 00 00 00 00 08 80 00 
10:19:21:1824 Rx 1 0x115 s 8 00 00 00 00 00 08 00 00 
10:19:21:1826 Rx 1 0x116 s 8 00 00 00 00 00 00 00 00 
10:19:21:1828 Rx 1 0x118 s 8 06 DC 06 D3 06 70 06 82 
10:19:21:1831 Rx 1 0x120 s 8 8C 06 03 A9 08 4E FF E1 
10:19:21:1833 Rx 1 0x121 s 8 68 83 0A C8 07 22 15 3E 
10:19:21:1836 Rx 1 0x117 s 8 06 00 00 00 00 00 00 00 
10:19:21:1857 Rx 1 0x100 s 8 D3 96 00 00 00 00 22 00 
10:19:21:1859 Rx 1 0x102 s 8 00 00 FF 00 2D 00 00 00 
10:19:21:1862 Rx 1 0x110 s 8 00 00 00 00 00 00 00 00 
10:19:21:1864 Rx 1 0x111 s 8 00 54 02 00 00 00 00 00 
10:19:21:1867 Rx 1 0x112 s 8 03 03 22 22 03 03 02 02 
10:19:21:1869 Rx 1 0x113 s 8 00 A4 0B 00 F3 A6 0B 00 
10:19:21:1871 Rx 1 0x114 s 8 00 00 00 00 00 08 80 00 
10:19:21:1874 Rx 1 0x115 s 8 00 00 00 00 00 08 00 00 
10:19:21:1876 Rx 1 0x116 s 8 00 00 00 00 00 00 00 00 
10:19:21:1879 Rx 1 0x118 s 8 06 DC 06 D3 06 75 06 84 
10:19:21:1881 Rx 1 0x120 s 8 8C 06 03 A9 08 4E FF E1 
10:19:21:1883 Rx 1 0x121 s 8 68 83 0A C8 07 22 15 3E 
10:19:21:1886 Rx 1 0x117 s 8 06 00 00 00 00 00 00 00 
10:19:21:1895 Rx 1 0x610 s 8 EC 51 18 3E 1F 85 DB 3E 
10:19:21:1897 Rx 1 0x611 s 4 85 EB 1D C0 
10:19:21:1906 Rx 1 0x100 s 8 8E 97 00 00 00 00 22 00 
10:19:21:1908 Rx 1 0x102 s 8 00 00 FF 00 2C 00 00 00 
10:19:21:1911 Rx 1 0x110 s 8 00 00 00 00 00 00 00 00 
10:19:21:1913 Rx 1 0x111 s 8 01 54 02 00 00 00 00 00 
10:19:21:1916 Rx 1 0x112 s 8 03 03 22 22 03 03 02 02 
10:19:21:1918 Rx 1 0x113 s 8 05 A4 0B 00 F8 A6 0B 00 
10:19:21:1920 Rx 1 0x114 s 8 00 00 00 00 00 08 80 00 
10:19:21:1923 Rx 1 0x115 s 8 00 00 00 00 00 08 00 00 
10:19:21:1926 Rx 1 0x116 s 8 00 00 00 00 00 00 00 00 
10:19:21:1928 Rx 1 0x118 s 8 06 DC 06 D3 06 75 06 84 
10:19:21:1930 Rx 1 0x120 s 8 8C 06 01 A9 08 4E FF E1 
10:19:21:1932 Rx 1 0x121 s 8 68 83 0A C8 07 22 15 3E 
10:19:21:1936 Rx 1 0x117 s 8 06 00 00 00 00 00 00 00 
10:19:21:1956 Rx 1 0x100 s 8 D2 98 00 00 00 00 22 00 
10:19:21:1958 Rx 1 0x102 s 8 00 00 FF 00 2B 00 00 00 
10:19:21:1961 Rx 1 0x110 s 8 00 00 00 00 00 00 00 00 
10:19:21:1963 Rx 1 0x111 s 8 02 54 02 00 00 00 00 00 
10:19:21:1965 Rx 1 0x112 s 8 03 03 22 22 03 03 02 02 
10:19:21:1968 Rx 1 0x113 s 8 0A A4 0B 00 FD A6 0B 00 
10:19:21:1970 Rx 1 0x114 s 8 00 00 00 00 00 08 80 00 
10:19:21:1973 Rx 1 0x115 s 8 00 00 00 00 00 08 00 00 
10:19:21:1975 Rx 1 0x116 s 8 00 00 00 00 00 00 00 00 
10:19:21:1978 Rx 1 0x118 s 8 06 E0 06 DA 06 75 06 84 
10:19:21:1980 Rx 1 0x120 s 8 8C 06 01 A9 08 4E FF E1 
10:19:21:1982 Rx 1 0x121 s 8 68 83 0A C8 07 22 15 3E 
10:19:21:1986 Rx 1 0x117 s 8 06 00 00 00 00 00 00 00 
10:19:21:2005 Rx 1 0x100 s 8 8F 99 00 00 00 00 22 00 
10:19:21:2008 Rx 1 0x102 s 8 00 00 FF 00 2A 00 00 00 
10:19:21:2010 Rx 1 0x110 s 8 00 00 00 00 00 00 00 00 
10:19:21:2013 Rx 1 0x111 s 8 03 54 02 00 00 00 00 00 
10:19:21:2015 Rx 1 0x112 s 8 03 03 22 22 03 03 02 02 
10:19:21:2018 Rx 1 0x113 s 8 0F A4 0B 00 02 A7 0B 00 
10:19:21:2020 Rx 1 0x114 s 8 00 00 00 00 00 08 80 00 
10:19:21:2022 Rx 1 0x115 s 8 00 00 00 00 00 08 00 00 
10:19:21:2025 Rx 1 0x116 s 8 00 00 00 00 00 00 00 00 
10:19:21:2028 Rx 1 0x118 s 8 06 E0 06 DA 06 7C 06 84 
10:19:21:2030 Rx 1 0x120 s 8 A2 06 01 A9 08 4E FF E1 
10:19:21:2032 Rx 1 0x121 s 8 68 83 0A C8 07 22 15 3E 
10:19:21:2036 Rx 1 0x117 s 8 06 00 00 00 00 00 00 00 
10:19:21:2052 Rx 1 0x630 s 1 F0 
10:19:21:2056 Rx 1 0x100 s 8 68 9A 00 00 00 00 22 00 
10:19:21:2058 Rx 1 0x102 s 8 00 00 FF 00 28 00 00 00 
10:19:21:2061 Rx 1 0x110 s 8 00 00 00 00 00 00 00 00 
10:19:21:2063 Rx 1 0x111 s 8 04 54 02 00 00 00 00 00 
10:19:21:2066 Rx 1 0x112 s 8 03 03 22 22 03 03 02 02 
10:19:21:2068 Rx 1 0x113 s 8 14 A4 0B 00 07 A7 0B 00 
10:19:21:2070 Rx 1 0x114 s 8 00 00 00 00 00 08 80 00 
10:19:21:2073 Rx 1 0x115 s 8 00 00 00 00 00 08 00 00 
10:19:21:2075 Rx 1 0x116 s 8 00 00 00 00 00 00 00 00 
10:19:21:2077 Rx 1 0x118 s 8 06 E7 06 DA 06 7C 06 70 
10:19:21:2080 Rx 1 0x120 s 8 A2 06 01 A9 08 4E FF E1 
10:19:21:2082 Rx 1 0x121 s 8 68 83 0A C8 07 22 15 3E 
10:19:21:2087 Rx 1 0x117 s 8 06 00 00 00 00 00 00 00 
10:19:21:2106 Rx 1 0x100 s 8 35 9B 00 00 00 00 22 00 
10:19:21:2109 Rx 1 0x102 s 8 00 00 FF 00 27 00 00 00 
10:19:21:2111 Rx 1 0x110 s 8 00 00 00 00 00 00 00 00 
10:19:21:2113 Rx 1 0x111 s 8 05 54 02 00 00 00 00 00 
10:19:21:2116 Rx 1 0x112 s 8 03 03 22 22 03 03 02 02 
10:19:21:2118 Rx 1 0x113 s 8 19 A4 0B 00 0C A7 0B 00 
10:19:21:2121 Rx 1 0x114 s 8 00 00 00 00 00 08 80 00 
10:19:21:2123 Rx 1 0x115 s 8 00 00 00 00 00 08 00 00 
10:19:21:2126 Rx 1 0x116 s 8 00 00 00 00 00 00 00 00 
10:19:21:2128 Rx 1 0x118 s 8 06 E7 06 D9 06 7C 06 70 
10:19:21:2130 Rx 1 0x120 s 8 A2 06 01 A9 08 4E FF E1 
10:19:21:2132 Rx 1 0x121 s 8 68 83 0A C8 07 22 15 3E 
10:19:21:2137 Rx 1 0x117 s 8 06 00 00 00 00 00 00 00 
10:19:21:2156 Rx 1 0x100 s 8 BB 9C 00 00 00 00 22 00 
10:19:21:2159 Rx 1 0x102 s 8 00 00 FF 00 26 00 00 00 
10:19:21:2161 Rx 1 0x110 s 8 00 00 00 00 00 00 00 00 
10:19:21:2164 Rx 1 0x111 s 8 06 54 02 00 00 00 00 00 
10:19:21:2166 Rx 1 0x112 s 8 03 03 22 22 03 03 02 02 
10:19:21:2168 Rx 1 0x113 s 8 1E A4 0B 00 11 A7 0B 00 
10:19:21:2171 Rx 1 0x114 s 8 00 00 00 00 00 08 80 00 
10:19:21:2173 Rx 1 0x115 s 8 00 00 00 00 00 08 00 00 
10:19:21:2176 Rx 1 0x116 s 8 00 00 00 00 00 00 00 00 
10:19:21:2178 Rx 1 0x118 s 8 06 E7 06 D9 06 70 06 70 
10:19:21:2180 Rx 1 0x120 s 8 A2 06 01 A9 08 4E FF E1 
10:19:21:2183 Rx 1 0x121 s 8 68 83 0A C8 07 22 15 3E 
10:19:21:2187 Rx 1 0x117 s 8 06 00 00 00 00 00 00 00 
10:19:21:2205 Rx 1 0x100 s 8 E6 9D 00 00 00 00 22 00 
10:19:21:2207 Rx 1 0x102 s 8 00 00 FF 00 24 00 00 00 
10:19:21:2210 Rx 1 0x110 s 8 00 00 00 00 00 00 00 00 
10:19:21:2212 Rx 1 0x111 s 8 07 54 02 00 00 00 00 00 
10:19:21:2215 Rx 1 0x112 s 8 03 03 22 22 03 03 02 02 
10:19:21:2217 Rx 1 0x113 s 8 23 A4 0B 00 16 A7 0B 00 
10:19:21:2220 Rx 1 0x114 s 8 00 00 00 00 00 08 80 00 
10:19:21:2222 Rx 1 0x115 s 8 00 00 00 00 00 08 00 00 
10:19:21:2224 Rx 1 0x116 s 8 00 00 00 00 00 00 00 00 
10:19:21:2227 Rx 1 0x118 s 8 06 E8 06 D9 06 70 06 66 
10:19:21:2229 Rx 1 0x120 s 8 A2 06 01 A9 08 4E FF E1 
10:19:21:2231 Rx 1 0x121 s 8 68 83 0A C8 07 22 15 3E 
10:19:21:2237 Rx 1 0x117 s 8 06 00 00 00 00 00 00 00 
10:19:21:2255 Rx 1 0x100 s 8 01 9E 00 00 00 00 22 00 
10:19:21:2258 Rx 1 0x102 s 8 00 00 FF 00 23 00 00 00 
10:19:21:2260 Rx 1 0x110 s 8 00 00 00 00 00 00 00 00 
10:19:21:2263 Rx 1 0x111 s 8 08 54 02 00 00 00 00 00 
10:19:21:2265 Rx 1 0x112 s 8 03 03 22 22 03 03 02 02 
10:19:21:2267 Rx 1 0x113 s 8 28 A4 0B 00 1B A7 0B 00 
10:19:21:2269 Rx 1 0x114 s 8 00 00 00 00 00 08 80 00 
10:19:21:2272 Rx 1 0x115 s 8 00 00 00 00 00 08 00 00 
10:19:21:2275 Rx 1 0x116 s 8 00 00 00 00 00 00 00 00 
10:19:21:2277 Rx 1 0x118 s 8 06 E8 06 DD 06 70 06 66 
10:19:21:2279 Rx 1 0x120 s 8 A2 06 01 A9 08 4E FF E1 
10:19:21:2281 Rx 1 0x121 s 8 68 83 0A C8 07 22 15 3E 
10:19:21:2287 Rx 1 0x117 s 8 06 00 00 00 00 00 00 00 
10:19:21:2302 Rx 1 0x630 s 1 F0 
10:19:21:2305 Rx 1 0x100 s 8 5C 9F 00 00 00 00 22 00 
10:19:21:2308 Rx 1 0x102 s 8 00 00 FF 00 21 00 00 00 
10:19:21:2310 Rx 1 0x110 s 8 00 00 00 00 00 00 00 00 
10:19:21:2313 Rx 1 0x111 s 8 09 54 02 00 00 00 00 00 
10:19:21:2315 Rx 1 0x112 s 8 03 03 22 22 03 03 02 02 
10:19:21:2318 Rx 1 0x113 s 8 2D A4 0B 00 20 A7 0B 00 
10:19:21:2320 Rx 1 0x114 s 8 00 00 00 00 00 08 80 00 
10:19:21:2322 Rx 1 0x115 s 8 00 00 00 00 00 08 00 00 
10:19:21:2325 Rx 1 0x116 s 8 00 00 00 00 00 00 00 00 
10:19:21:2327 Rx 1 0x118 s 8 06 E8 06 DD 06 75 06 66 
10:19:21:2330 Rx 1 0x120 s 8 A2 06 00 A9 08 4E FF E1 
10:19:21:2332 Rx 1 0x121 s 8 68 83 0A C8 07 22 15 3E 
10:19:21:2337 Rx 1 0x117 s 8 06 00 00 00 00 00 00 00 
10:19:21:2356 Rx 1 0x100 s 8 D6 A0 00 00 00 00 22 00 
10:19:21:2358 Rx 1 0x102 s 8 00 00 FF 00 20 00 00 00 
10:19:21:2360 Rx 1 0x110 s 8 00 00 00 00 00 00 00 00 
10:19:21:2363 Rx 1 0x111 s 8 0A 54 02 00 00 00 00 00 
10:19:21:2365 Rx 1 0x112 s 8 03 03 22 22 03 03 02 02 
10:19:21:2368 Rx 1 0x113 s 8 32 A4 0B 00 25 A7 0B 00 
10:19:21:2370 Rx 1 0x114 s 8 00 00 00 00 00 08 80 00 
10:19:21:2373 Rx 1 0x115 s 8 00 00 00 00 00 08 00 00 
10:19:21:2375 Rx 1 0x116 s 8 00 00 00 00 00 00 00 00 
10:19:21:2377 Rx 1 0x118 s 8 06 EB 06 DD 06 75 06 66 
10:19:21:2380 Rx 1 0x120 s 8 A2 06 00 A9 08 4E FF E1 
10:19:21:2382 Rx 1 0x121 s 8 68 83 0A C8 07 22 15 3E 
10:19:21:2388 Rx 1 0x117 s 8 06 00 00 00 00 00 00 00 
10:19:21:2395 Rx 1 0x610 s 8 EC 51 18 3E 1F 85 DB 3E 
10:19:21:2397 Rx 1 0x611 s 4 85 EB 1D C0 
10:19:21:2404 Rx 1 0x100 s 8 8B A1 00 00 00 00 22 00 
10:19:21:2406 Rx 1 0x102 s 8 00 00 FF 00 1E 00 00 00 
10:19:21:2409 Rx 1 0x110 s 8 00 00 00 00 00 00 00 00 
10:19:21:2412 Rx 1 0x111 s 8 0B 54 02 00 00 00 00 00 
10:19:21:2414 Rx 1 0x112 s 8 03 03 22 22 03 03 02 02 
10:19:21:2416 Rx 1 0x113 s 8 37 A4 0B 00 2A A7 0B 00 
10:19:21:2419 Rx 1 0x114 s 8 00 00 00 00 00 08 80 00 
10:19:21:2421 Rx 1 0x115 s 8 00 00 00 00 00 08 00 00 
10:19:21:2423 Rx 1 0x116 s 8 00 00 00 00 00 00 00 00 
10:19:21:2426 Rx 1 0x118 s 8 06 EB 06 DB 06 75 06 66 
10:19:21:2428 Rx 1 0x120 s 8 A2 06 00 A9 08 4E FF E1 
10:19:21:2431 Rx 1 0x121 s 8 68 83 0A C8 07 22 15 3E 
10:19:21:2438 Rx 1 0x117 s 8 06 00 00 00 00 00 00 00 
10:19:21:2455 Rx 1 0x100 s 8 6C A2 00 00 00 00 22 00 
10:19:21:2457 Rx 1 0x102 s 8 00 00 FF 00 1D 00 00 00 
10:19:21:2459 Rx 1 0x110 s 8 00 00 00 00 00 00 00 00 
10:19:21:2462 Rx 1 0x111 s 8 0C 54 02 00 00 00 00 00 
10:19:21:2464 Rx 1 0x112 s 8 03 03 22 22 03 03 02 02 
10:19:21:2467 Rx 1 0x113 s 8 3C A4 0B 00 2F A7 0B 00 
10:19:21:2469 Rx 1 0x114 s 8 00 00 00 00 00 08 80 00 
10:19:21:2472 Rx 1 0x115 s 8 00 00 00 00 00 08 00 00 
10:19:21:2474 Rx 1 0x116 s 8 00 00 00 00 00 00 00 00 
10:19:21:2476 Rx 1 0x118 s 8 06 EB 06 DB 06 7B 06 66 
10:19:21:2479 Rx 1 0x120 s 8 A2 06 00 A9 08 4E FF E1 
10:19:21:2481 Rx 1 0x121 s 8 68 83 0A C8 07 22 15 3E 
10:19:21:2488 Rx 1 0x117 s 8 06 00 00 00 00 00 00 00 
10:19:21:2504 Rx 1 0x100 s 8 31 A3 00 00 00 00 22 00 
10:19:21:2506 Rx 1 0x102 s 8 00 00 FF 00 1B 00 00 00 
10:19:21:2508 Rx 1 0x110 s 8 00 00 00 00 00 00 00 00 
10:19:21:2511 Rx 1 0x111 s 8 0D 54 02 00 00 00 00 00 
10:19:21:2513 Rx 1 0x112 s 8 03 03 22 22 03 03 02 02 
10:19:21:2516 Rx 1 0x113 s 8 41 A4 0B 00 34 A7 0B 00 
10:19:21:2518 Rx 1 0x114 s 8 00 00 00 00 00 08 80 00 
10:19:21:2521 Rx 1 0x115 s 8 00 00 00 00 00 08 00 00 
10:19:21:2523 Rx 1 0x116 s 8 00 00 00 00 00 00 00 00 
10:19:21:2525 Rx 1 0x118 s 8 06 FA 06 DB 06 7B 06 66 
10:19:21:2528 Rx 1 0x120 s 8 A2 06 FE A8 08 4E FF E1 
10:19:21:2530 Rx 1 0x121 s 8 68 83 0A C8 07 22 15 3E 
10:19:21:2537 Rx 1 0x600 s 8 F9 FF 08 00 FB FF 19 03 
10:19:21:2540 Rx 1 0x117 s 8 06 00 00 00 00 00 00 00 
10:19:21:2542 Rx 1 0x601 s 6 72 FF 78 00 D4 00 
10:19:21:2552 Rx 1 0x630 s 1 F0 
10:19:21:2555 Rx 1 0x100 s 8 BF A4 00 00 00 00 22 00 
10:19:21:2557 Rx 1 0x102 s 8 00 00 FF 00 1A 00 00 00 
10:19:21:2560 Rx 1 0x110 s 8 00 00 00 00 00 00 00 00 
10:19:21:2562 Rx 1 0x111 s 8 0E 54 02 00 00 00 00 00 
10:19:21:2565 Rx 1 0x112 s 8 03 03 22 22 03 03 02 02 
10:19:21:2567 Rx 1 0x113 s 8 46 A4 0B 00 39 A7 0B 00 
10:19:21:2569 Rx 1 0x114 s 8 00 00 00 00 00 08 80 00 
10:19:21:2572 Rx 1 0x115 s 8 00 00 00 00 00 08 00 00 
10:19:21:2575 Rx 1 0x116 s 8 00 00 00 00 00 00 00 00 
10:19:21:2577 Rx 1 0x118 s 8 06 FA 06 D5 06 7B 06 66 
10:19:21:2579 Rx 1 0x120 s 8 A2 06 FE A8 08 4E FF E1 
10:19:21:2581 Rx 1 0x121 s 8 68 83 0A C8 07 22 15 3E 
10:19:21:2588 Rx 1 0x117 s 8 06 00 00 00 00 00 00 00 
10:19:21:2590 Rx 1 0x620 s 3 02 0A 03 
10:19:21:2592 Rx 1 0x621 s 8 9A 19 7E 43 89 41 64 41 
10:19:21:2594 Rx 1 0x622 s 7 58 22 80 41 31 00 57 
10:19:21:2596 Rx 1 0x623 s 7 76 D0 10 42 10 00 53 
10:19:21:2598 Rx 1 0x624 s 4 33 93 40 44 
10:19:21:2601 Rx 1 0x625 s 8 EC 51 F8 3F E1 7A 54 3F 
10:19:21:2602 Rx 1 0x626 s 4 00 00 E0 3F 
10:19:21:2604 Rx 1 0x100 s 8 E2 A5 00 00 00 00 22 00 
10:19:21:2607 Rx 1 0x102 s 8 00 00 FF 00 18 00 00 00 
10:19:21:2609 Rx 1 0x110 s 8 00 00 00 00 00 00 00 00 
10:19:21:2612 Rx 1 0x111 s 8 0F 54 02 00 00 00 00 00 
10:19:21:2614 Rx 1 0x112 s 8 03 03 22 22 03 03 02 02 
10:19:21:2617 Rx 1 0x113 s 8 4B A4 0B 00 3E A7 0B 00 
10:19:21:2619 Rx 1 0x114 s 8 00 00 00 00 00 08 80 00 
10:19:21:2621 Rx 1 0x115 s 8 00 00 00 00 00 08 00 00 
10:19:21:2624 Rx 1 0x116 s 8 00 00 00 00 00 00 00 00 
10:19:21:2627 Rx 1 0x118 s 8 06 FA 06 D5 06 86 06 66 
10:19:21:2629 Rx 1 0x120 s 8 A2 06 FF A8 08 4E FF E1 
10:19:21:2631 Rx 1 0x121 s 8 68 83 0A C8 07 22 15 3E 
10:19:21:2633 Rx 1 0x627 s 6 18 07 1D 0D 13 13 
10:19:21:2639 Rx 1 0x117 s 8 06 00 00 00 00 00 00 00 
10:19:21:2654 Rx 1 0x100 s 8 05 A6 00 00 00 00 22 00 
10:19:21:2656 Rx 1 0x102 s 8 00 00 FF 00 16 00 00 00 
10:19:21:2659 Rx 1 0x110 s 8 00 00 00 00 00 00 00 00 
10:19:21:2661 Rx 1 0x111 s 8 10 54 02 00 00 00 00 00 
10:19:21:2664 Rx 1 0x112 s 8 03 03 22 22 03 03 02 02 
10:19:21:2666 Rx 1 0x113 s 8 50 A4 0B 00 43 A7 0B 00 
10:19:21:2668 Rx 1 0x114 s 8 00 00 00 00 00 08 80 00 
10:19:21:2671 Rx 1 0x115 s 8 00 00 00 00 00 08 00 00 
10:19:21:2673 Rx 1 0x116 s 8 00 00 00 00 00 00 00 00 
10:19:21:2676 Rx 1 0x118 s 8 06 F9 06 D5 06 86 06 65 
10:19:21:2678 Rx 1 0x120 s 8 A2 06 FF A8 08 4E FF E1 
10:19:21:2680 Rx 1 0x121 s 8 68 83 0A C8 07 22 15 3E 
10:19:21:2689 Rx 1 0x117 s 8 06 00 00 00 00 00 00 00 
10:19:21:2704 Rx 1 0x100 s 8 58 A7 00 00 00 00 22 00 
10:19:21:2706 Rx 1 0x102 s 8 00 00 FF 00 14 00 00 00 
10:19:21:2709 Rx 1 0x110 s 8 00 00 00 00 00 00 00 00 
10:19:21:2711 Rx 1 0x111 s 8 11 54 02 00 00 00 00 00 
10:19:21:2714 Rx 1 0x112 s 8 03 03 22 22 03 03 02 02 
10:19:21:2716 Rx 1 0x113 s 8 55 A4 0B 00 48 A7 0B 00 
10:19:21:2719 Rx 1 0x114 s 8 00 00 00 00 00 08 80 00 
10:19:21:2721 Rx 1 0x115 s 8 00 00 00 00 00 08 00 00 
10:19:21:2723 Rx 1 0x116 s 8 00 00 00 00 00 00 00 00 
10:19:21:2726 Rx 1 0x118 s 8 06 F9 06 D8 06 86 06 65 
10:19:21:2728 Rx 1 0x120 s 8 A2 06 FF A8 08 4E FF E1 
10:19:21:2731 Rx 1 0x121 s 8 68 83 0A C8 07 22 15 3E 
10:19:21:2739 Rx 1 0x117 s 8 06 00 00 00 00 00 00 00 
10:19:21:2753 Rx 1 0x100 s 8 04 A8 00 00 00 00 22 00 
10:19:21:2755 Rx 1 0x102 s 8 00 00 FF 00 13 00 00 00 
10:19:21:2758 Rx 1 0x110 s 8 00 00 00 00 00 00 00 00 
10:19:21:2760 Rx 1 0x111 s 8 12 54 02 00 00 00 00 00 
10:19:21:2763 Rx 1 0x112 s 8 03 03 22 22 03 03 02 02 
10:19:21:2765 Rx 1 0x113 s 8 5A A4 0B 00 4D A7 0B 00 
10:19:21:2767 Rx 1 0x114 s 8 00 00 00 00 00 08 80 00 
10:19:21:2770 Rx 1 0x115 s 8 00 00 00 00 00 08 00 00 
10:19:21:2772 Rx 1 0x116 s 8 00 00 00 00 00 00 00 00 
10:19:21:2775 Rx 1 0x118 s 8 06 F9 06 D8 06 85 06 65 
10:19:21:2777 Rx 1 0x120 s 8 A2 06 FF A8 08 4E FF E1 
10:19:21:2779 Rx 1 0x121 s 8 68 83 0A C8 07 22 15 3E 
10:19:21:2789 Rx 1 0x117 s 8 06 00 00 00 00 00 00 00 
10:19:21:2803 Rx 1 0x100 s 8 59 A9 00 00 00 00 22 00 
10:19:21:2805 Rx 1 0x102 s 8 00 00 FF 00 11 00 00 00 
10:19:21:2808 Rx 1 0x110 s 8 00 00 00 00 00 00 00 00 
10:19:21:2810 Rx 1 0x111 s 8 13 54 02 00 00 00 00 00 
10:19:21:2813 Rx 1 0x112 s 8 03 03 22 22 03 03 02 02 
10:19:21:2815 Rx 1 0x113 s 8 5F A4 0B 00 52 A7 0B 00 
10:19:21:2818 Rx 1 0x114 s 8 00 00 00 00 00 08 80 00 
10:19:21:2820 Rx 1 0x115 s 8 00 00 00 00 00 08 00 00 
10:19:21:2822 Rx 1 0x116 s 8 00 00 00 00 00 00 00 00 
10:19:21:2825 Rx 1 0x118 s 8 06 F4 06 DE 06 85 06 7A 
10:19:21:2827 Rx 1 0x120 s 8 A2 06 FE A8 08 4E FF E1 
10:19:21:2829 Rx 1 0x121 s 8 68 83 0A C8 07 22 15 3E 
10:19:21:2831 Rx 1 0x630 s 1 F0 
10:19:21:2839 Rx 1 0x117 s 8 06 00 00 00 00 00 00 00 
10:19:21:2854 Rx 1 0x100 s 8 BE AA 00 00 00 00 22 00 
10:19:21:2856 Rx 1 0x102 s 8 00 00 FF 00 10 00 00 00 
10:19:21:2858 Rx 1 0x110 s 8 00 00 00 00 00 00 00 00 
10:19:21:2861 Rx 1 0x111 s 8 14 54 02 00 00 00 00 00 
10:19:21:2863 Rx 1 0x112 s 8 03 03 22 22 03 03 02 02 
10:19:21:2865 Rx 1 0x113 s 8 64 A4 0B 00 57 A7 0B 00 
10:19:21:2868 Rx 1 0x114 s 8 00 00 00 00 00 08 80 00 
10:19:21:2870 Rx 1 0x115 s 8 00 00 00 00 00 08 00 00 
10:19:21:2873 Rx 1 0x116 s 8 00 00 00 00 00 00 00 00 
10:19:21:2875 Rx 1 0x118 s 8 06 F4 06 DE 06 85 06 7A 
10:19:21:2877 Rx 1 0x120 s 8 A2 06 FE A8 08 4E FF E1 
10:19:21:2880 Rx 1 0x121 s 8 68 83 0A C8 07 22 15 3E 
10:19:21:2889 Rx 1 0x117 s 8 06 00 00 00 00 00 00 00 
10:19:21:2895 Rx 1 0x610 s 8 00 00 E0 BF 00 00 60 3E 
10:19:21:2897 Rx 1 0x611 s 4 CD CC 0E C0 
10:19:21:2902 Rx 1 0x100 s 8 E3 AB 00 00 00 00 22 00 
10:19:21:2905 Rx 1 0x102 s 8 00 00 FF 00 0E 00 00 00 
10:19:21:2907 Rx 1 0x110 s 8 00 00 00 00 00 00 00 00 
10:19:21:2910 Rx 1 0x111 s 8 15 54 02 00 00 00 00 00 
10:19:21:2912 Rx 1 0x112 s 8 03 03 22 22 03 03 02 02 
10:19:21:2914 Rx 1 0x113 s 8 69 A4 0B 00 5C A7 0B 00 
10:19:21:2917 Rx 1 0x114 s 8 00 00 00 00 00 08 80 00 
10:19:21:2919 Rx 1 0x115 s 8 00 00 00 00 00 08 00 00 
10:19:21:2922 Rx 1 0x116 s 8 00 00 00 00 00 00 00 00 
10:19:21:2924 Rx 1 0x118 s 8 06 F7 06 DE 06 99 06 7A 
10:19:21:2927 Rx 1 0x120 s 8 A2 06 FE A8 08 4E FF E1 
10:19:21:2929 Rx 1 0x121 s 8 68 83 0A C8 07 22 15 3E 
10:19:21:2939 Rx 1 0x117 s 8 06 00 00 00 00 00 00 00 
10:19:21:2953 Rx 1 0x100 s 8 6D AC 00 00 00 00 22 00 
10:19:21:2955 Rx 1 0x102 s 8 00 00 FF 00 0D 00 00 00 
10:19:21:2958 Rx 1 0x110 s 8 00 00 00 00 00 00 00 00 
10:19:21:2960 Rx 1 0x111 s 8 16 54 02 00 00 00 00 00 
10:19:21:2962 Rx 1 0x112 s 8 03 03 22 22 03 03 02 02 
10:19:21:2964 Rx 1 0x113 s 8 6E A4 0B 00 61 A7 0B 00 
10:19:21:2967 Rx 1 0x114 s 8 00 00 00 00 00 08 80 00 
10:19:21:2970 Rx 1 0x115 s 8 00 00 00 00 00 08 00 00 
10:19:21:2972 Rx 1 0x116 s 8 00 00 00 00 00 00 00 00 
10:19:21:2974 Rx 1 0x118 s 8 06 F7 06 E2 06 99 06 88 
10:19:21:2977 Rx 1 0x120 s 8 A2 06 FE A8 08 4E FF E1 
10:19:21:2979 Rx 1 0x121 s 8 68 83 0A C8 07 22 15 3E 
10:19:21:2990 Rx 1 0x117 s 8 06 00 00 00 00 00 00 00 
10:19:21:3003 Rx 1 0x100 s 8 30 AD 00 00 00 00 22 00 
10:19:21:3005 Rx 1 0x102 s 8 00 00 FF 00 0C 00 00 00 
10:19:21:3008 Rx 1 0x110 s 8 00 00 00 00 00 00 00 00 
10:19:21:3010 Rx 1 0x111 s 8 17 54 02 00 00 00 00 00 
10:19:21:3013 Rx 1 0x112 s 8 03 03 22 22 03 03 02 02 
10:19:21:3015 Rx 1 0x113 s 8 73 A4 0B 00 66 A7 0B 00 
10:19:21:3017 Rx 1 0x114 s 8 00 00 00 00 00 08 80 00 
10:19:21:3020 Rx 1 0x115 s 8 00 00 00 00 00 08 00 00 
10:19:21:3022 Rx 1 0x116 s 8 00 00 00 00 00 00 00 00 
10:19:21:3025 Rx 1 0x118 s 8 06 F7 06 E2 06 99 06 88 
10:19:21:3027 Rx 1 0x120 s 8 AD 06 FE A8 08 4E FF E1 
10:19:21:3029 Rx 1 0x121 s 8 68 83 0A C8 07 22 15 3E 
10:19:21:3040 Rx 1 0x117 s 8 06 00 00 00 00 00 00 00 
10:19:21:3052 Rx 1 0x100 s 8 D7 AE 00 00 00 00 22 00 
10:19:21:3054 Rx 1 0x102 s 8 00 00 FF 00 0B 00 00 00 
10:19:21:3056 Rx 1 0x110 s 8 00 00 00 00 00 00 00 00 
10:19:21:3059 Rx 1 0x111 s 8 18 54 02 00 00 00 00 00 
10:19:21:3061 Rx 1 0x112 s 8 03 03 22 22 03 03 02 02 
10:19:21:3063 Rx 1 0x113 s 8 78 A4 0B 00 6B A7 0B 00 
10:19:21:3066 Rx 1 0x114 s 8 00 00 00 00 00 08 80 00 
10:19:21:3068 Rx 1 0x115 s 8 00 00 00 00 00 08 00 00 
10:19:21:3071 Rx 1 0x116 s 8 00 00 00 00 00 00 00 00 
10:19:21:3073 Rx 1 0x118 s 8 06 F6 06 E2 06 98 06 88 
10:19:21:3075 Rx 1 0x120 s 8 AD 06 FE A8 08 4E FF E1 
10:19:21:3078 Rx 1 0x121 s 8 68 83 0A C8 07 22 15 3E 
10:19:21:3079 Rx 1 0x630 s 1 F0 
10:19:21:3090 Rx 1 0x117 s 8 06 00 00 00 00 00 00 00 
10:19:21:3101 Rx 1 0x100 s 8 8A AF 00 00 00 00 22 00 
10:19:21:3104 Rx 1 0x102 s 8 00 00 FF 00 09 00 00 00 
10:19:21:3106 Rx 1 0x110 s 8 00 00 00 00 00 00 00 00 
10:19:21:3109 Rx 1 0x111 s 8 19 54 02 00 00 00 00 00 
10:19:21:3111 Rx 1 0x112 s 8 03 03 22 22 03 03 02 02 
10:19:21:3113 Rx 1 0x113 s 8 7D A4 0B 00 70 A7 0B 00 
10:19:21:3116 Rx 1 0x114 s 8 00 00 00 00 00 08 80 00 
10:19:21:3118 Rx 1 0x115 s 8 00 00 00 00 00 08 00 00 
10:19:21:3121 Rx 1 0x116 s 8 00 00 00 00 00 00 00 00 
10:19:21:3123 Rx 1 0x118 s 8 06 F6 06 DE 06 98 06 87 
10:19:21:3125 Rx 1 0x120 s 8 AD 06 FE A8 08 4E FF E1 
10:19:21:3127 Rx 1 0x121 s 8 68 83 0A C8 07 22 15 3E 
10:19:21:3140 Rx 1 0x117 s 8 06 00 00 00 00 00 00 00 
10:19:21:3151 Rx 1 0x100 s 8 6F B0 00 00 00 00 22 00 
10:19:21:3154 Rx 1 0x102 s 8 00 00 FF 00 08 00 00 00 
10:19:21:3156 Rx 1 0x110 s 8 00 00 00 00 00 00 00 00 
10:19:21:3159 Rx 1 0x111 s 8 1A 54 02 00 00 00 00 00 
10:19:21:3161 Rx 1 0x112 s 8 03 03 22 22 03 03 02 02 
10:19:21:3163 Rx 1 0x113 s 8 82 A4 0B 00 75 A7 0B 00 
10:19:21:3166 Rx 1 0x114 s 8 00 00 00 00 00 08 80 00 
10:19:21:3168 Rx 1 0x115 s 8 00 00 00 00 00 08 00 00 
10:19:21:3171 Rx 1 0x116 s 8 00 00 00 00 00 00 00 00 
10:19:21:3173 Rx 1 0x118 s 8 06 F6 06 DE 06 98 06 87 
10:19:21:3175 Rx 1 0x120 s 8 AD 06 FE A8 08 4E FF E1 
10:19:21:3178 Rx 1 0x121 s 8 68 83 0A C8 07 22 15 3E 
10:19:21:3190 Rx 1 0x117 s 8 06 00 00 00 00 00 00 00 
10:19:21:3201 Rx 1 0x100 s 8 32 B1 00 00 00 00 22 00 
10:19:21:3203 Rx 1 0x102 s 8 00 00 FF 00 07 00 00 00 
10:19:21:3206 Rx 1 0x110 s 8 00 00 00 00 00 00 00 00 
10:19:21:3209 Rx 1 0x111 s 8 1B 54 02 00 00 00 00 00 
10:19:21:3211 Rx 1 0x112 s 8 03 03 22 22 03 03 02 02 
10:19:21:3213 Rx 1 0x113 s 8 87 A4 0B 00 7A A7 0B 00 
10:19:21:3216 Rx 1 0x114 s 8 00 00 00 00 00 08 80 00 
10:19:21:3218 Rx 1 0x115 s 8 00 00 00 00 00 08 00 00 
10:19:21:3220 Rx 1 0x116 s 8 00 00 00 00 00 00 00 00 
10:19:21:3223 Rx 1 0x118 s 8 06 F5 06 DE 06 9B 06 87 
10:19:21:3225 Rx 1 0x120 s 8 AD 06 FD A8 08 4E FF E1 
10:19:21:3227 Rx 1 0x121 s 8 68 83 0A C8 07 22 15 3E 
10:19:21:3241 Rx 1 0x117 s 8 06 00 00 00 00 00 00 00 
10:19:21:3251 Rx 1 0x100 s 8 D5 B2 00 00 00 00 22 00 
10:19:21:3253 Rx 1 0x102 s 8 00 00 FF 00 07 00 00 00 
10:19:21:3256 Rx 1 0x110 s 8 00 00 00 00 00 00 00 00 
10:19:21:3258 Rx 1 0x111 s 8 1C 54 02 00 00 00 00 00 
10:19:21:3261 Rx 1 0x112 s 8 03 03 22 22 03 03 02 02 
10:19:21:3263 Rx 1 0x113 s 8 8C A4 0B 00 7F A7 0B 00 
10:19:21:3265 Rx 1 0x114 s 8 00 00 00 00 00 08 80 00 
10:19:21:3268 Rx 1 0x115 s 8 00 00 00 00 00 08 00 00 
10:19:21:3270 Rx 1 0x116 s 8 00 00 00 00 00 00 00 00 
10:19:21:3273 Rx 1 0x118 s 8 06 F5 06 E5 06 9B 06 88 
10:19:21:3275 Rx 1 0x120 s 8 AD 06 FD A8 08 4E FF E1 
10:19:21:3277 Rx 1 0x121 s 8 68 83 0A C8 07 22 15 3E 
10:19:21:3287 Rx 1 0x600 s 8 FC FF 07 00 FF FF 18 03 
10:19:21:3290 Rx 1 0x601 s 6 5E FF 64 00 D3 00 
10:19:21:3292 Rx 1 0x117 s 8 06 00 00 00 00 00 00 00 
10:19:21:3300 Rx 1 0x100 s 8 88 B3 00 00 00 00 22 00 
10:19:21:3303 Rx 1 0x102 s 8 00 00 FF 00 05 00 00 00 
10:19:21:3305 Rx 1 0x110 s 8 00 00 00 00 00 00 00 00 
10:19:21:3308 Rx 1 0x111 s 8 1D 54 02 00 00 00 00 00 
10:19:21:3310 Rx 1 0x112 s 8 03 03 22 22 03 03 02 02 
10:19:21:3313 Rx 1 0x113 s 8 91 A4 0B 00 84 A7 0B 00 
10:19:21:3315 Rx 1 0x114 s 8 00 00 00 00 00 08 80 00 
10:19:21:3317 Rx 1 0x115 s 8 00 00 00 00 00 08 00 00 
10:19:21:3320 Rx 1 0x116 s 8 00 00 00 00 00 00 00 00 
10:19:21:3322 Rx 1 0x118 s 8 06 F5 06 E5 06 9B 06 88 
10:19:21:3325 Rx 1 0x120 s 8 AD 06 FE A8 08 4E FF E1 
10:19:21:3327 Rx 1 0x121 s 8 68 83 0A C8 07 22 15 3E 
10:19:21:3328 Rx 1 0x630 s 1 F0 
10:19:21:3341 Rx 1 0x117 s 8 06 00 00 00 00 00 00 00 
10:19:21:3350 Rx 1 0x100 s 8 06 B4 00 00 00 00 22 00 
10:19:21:3353 Rx 1 0x102 s 8 00 00 FF 00 05 00 00 00 
10:19:21:3355 Rx 1 0x110 s 8 00 00 00 00 00 00 00 00 
10:19:21:3357 Rx 1 0x111 s 8 1E 54 02 00 00 00 00 00 
10:19:21:3360 Rx 1 0x112 s 8 03 03 22 22 03 03 02 02 
10:19:21:3362 Rx 1 0x113 s 8 96 A4 0B 00 89 A7 0B 00 
10:19:21:3365 Rx 1 0x114 s 8 00 00 00 00 00 08 80 00 
10:19:21:3367 Rx 1 0x115 s 8 00 00 00 00 00 08 00 00 
10:19:21:3370 Rx 1 0x116 s 8 00 00 00 00 00 00 00 00 
10:19:21:3372 Rx 1 0x118 s 8 06 F9 06 E5 06 95 06 88 
10:19:21:3374 Rx 1 0x120 s 8 AD 06 FE A8 08 4E FF E1 
10:19:21:3377 Rx 1 0x121 s 8 68 83 0A C8 07 22 15 3E 
10:19:21:3391 Rx 1 0x117 s 8 06 00 00 00 00 00 00 00 
10:19:21:3395 Rx 1 0x610 s 8 00 00 E0 BF 00 00 60 3E 
10:19:21:3397 Rx 1 0x611 s 4 CD CC 0E C0 
10:19:21:3400 Rx 1 0x640 s 8 00 19 0C 05 1D 07 18 00 
10:19:21:3402 Rx 1 0x100 s 8 5B B5 00 00 00 00 22 00 
10:19:21:3404 Rx 1 0x102 s 8 00 00 FF 00 04 00 00 00 
10:19:21:3407 Rx 1 0x110 s 8 00 00 00 00 00 00 00 00 
10:19:21:3409 Rx 1 0x111 s 8 1F 54 02 00 00 00 00 00 
10:19:21:3412 Rx 1 0x112 s 8 03 03 22 22 03 03 02 02 
10:19:21:3414 Rx 1 0x113 s 8 9B A4 0B 00 8E A7 0B 00 
10:19:21:3416 Rx 1 0x114 s 8 00 00 00 00 00 08 80 00 
10:19:21:3419 Rx 1 0x115 s 8 00 00 00 00 00 08 00 00 
10:19:21:3421 Rx 1 0x116 s 8 00 00 00 00 00 00 00 00 
10:19:21:3424 Rx 1 0x118 s 8 06 F9 06 E0 06 95 06 87 
10:19:21:3426 Rx 1 0x120 s 8 AD 06 FD A8 08 4E FF E1 
10:19:21:3428 Rx 1 0x121 s 8 68 83 0A C8 07 22 15 3E 
10:19:21:3441 Rx 1 0x117 s 8 06 00 00 00 00 00 00 00 
10:19:21:3450 Rx 1 0x100 s 8 BC B6 00 00 00 00 22 00 
10:19:21:3452 Rx 1 0x102 s 8 00 00 FF 00 03 00 00 00 
10:19:21:3455 Rx 1 0x110 s 8 00 00 00 00 00 00 00 00 
10:19:21:3457 Rx 1 0x111 s 8 20 54 02 00 00 00 00 00 
10:19:21:3459 Rx 1 0x112 s 8 03 03 22 22 03 03 02 02 
10:19:21:3462 Rx 1 0x113 s 8 A0 A4 0B 00 93 A7 0B 00 
10:19:21:3464 Rx 1 0x114 s 8 00 00 00 00 00 08 80 00 
10:19:21:3467 Rx 1 0x115 s 8 00 00 00 00 00 08 00 00 
10:19:21:3469 Rx 1 0x116 s 8 00 00 00 00 00 00 00 00 
10:19:21:3471 Rx 1 0x118 s 8 07 07 06 E0 06 98 06 87 
10:19:21:3474 Rx 1 0x120 s 8 AD 06 FD A8 08 4E FF E1 
10:19:21:3476 Rx 1 0x121 s 8 68 83 0A C8 07 22 15 3E 
10:19:21:3491 Rx 1 0x117 s 8 06 00 00 00 00 00 00 00 
10:19:21:3500 Rx 1 0x100 s 8 E1 B7 00 00 00 00 22 00 
10:19:21:3502 Rx 1 0x102 s 8 00 00 FF 00 02 00 00 00 
10:19:21:3505 Rx 1 0x110 s 8 00 00 00 00 00 00 00 00 
10:19:21:3507 Rx 1 0x111 s 8 21 54 02 00 00 00 00 00 
10:19:21:3509 Rx 1 0x112 s 8 03 03 22 22 03 03 02 02 
10:19:21:3512 Rx 1 0x113 s 8 A5 A4 0B 00 98 A7 0B 00 
10:19:21:3514 Rx 1 0x114 s 8 00 00 00 00 00 08 80 00 
10:19:21:3517 Rx 1 0x115 s 8 00 00 00 00 00 08 00 00 
10:19:21:3519 Rx 1 0x116 s 8 00 00 00 00 00 00 00 00 
10:19:21:3521 Rx 1 0x118 s 8 07 07 06 E0 06 98 06 87 
10:19:21:3524 Rx 1 0x120 s 8 AD 06 FD A8 08 4E FF E1 
10:19:21:3526 Rx 1 0x121 s 8 68 83 0A C8 07 22 15 3E 
10:19:21:3541 Rx 1 0x117 s 8 06 00 00 00 00 00 00 00 
10:19:21:3549 Rx 1 0x100 s 8 BD B8 00 00 00 00 22 00 
10:19:21:3552 Rx 1 0x102 s 8 00 00 FF 00 02 00 00 00 
10:19:21:3554 Rx 1 0x110 s 8 00 00 00 00 00 00 00 00 
10:19:21:3557 Rx 1 0x111 s 8 22 54 02 00 00 00 00 00 
10:19:21:3559 Rx 1 0x112 s 8 03 03 22 22 03 03 02 02 
10:19:21:3561 Rx 1 0x113 s 8 AA A4 0B 00 9D A7 0B 00 
10:19:21:3564 Rx 1 0x114 s 8 00 00 00 00 00 08 80 00 
10:19:21:3566 Rx 1 0x115 s 8 00 00 00 00 00 08 00 00 
10:19:21:3569 Rx 1 0x116 s 8 00 00 00 00 00 00 00 00 
10:19:21:3571 Rx 1 0x118 s 8 07 07 06 E8 06 98 06 88 
10:19:21:3573 Rx 1 0x120 s 8 AD 06 FD A8 08 4E FF E1 
10:19:21:3575 Rx 1 0x121 s 8 68 83 0A C8 07 22 15 3E 
10:19:21:3577 Rx 1 0x630 s 1 F0 
10:19:21:3590 Rx 1 0x620 s 3 02 0A 03 
10:19:21:3592 Rx 1 0x117 s 8 06 00 00 00 00 00 00 00 
10:19:21:3594 Rx 1 0x621 s 8 9A 19 7E 43 89 41 64 41 
10:19:21:3596 Rx 1 0x622 s 7 58 22 80 41 31 00 57 
10:19:21:3598 Rx 1 0x623 s 7 76 D0 10 42 10 00 53 
10:19:21:3601 Rx 1 0x100 s 8 E0 B9 00 00 00 00 22 00 
10:19:21:3604 Rx 1 0x102 s 8 00 00 FF 00 01 00 00 00 
10:19:21:3606 Rx 1 0x110 s 8 00 00 00 00 00 00 00 00 
10:19:21:3609 Rx 1 0x111 s 8 23 54 02 00 00 00 00 00 
10:19:21:3611 Rx 1 0x112 s 8 03 03 22 22 03 03 02 02 
10:19:21:3613 Rx 1 0x113 s 8 AF A4 0B 00 A2 A7 0B 00 
10:19:21:3616 Rx 1 0x114 s 8 00 00 00 00 00 08 80 00 
10:19:21:3618 Rx 1 0x115 s 8 00 00 00 00 00 08 00 00 
10:19:21:3621 Rx 1 0x116 s 8 00 00 00 00 00 00 00 00 
10:19:21:3623 Rx 1 0x118 s 8 07 00 06 E8 06 A2 06 88 
10:19:21:3625 Rx 1 0x120 s 8 AD 06 FD A8 08 4E FF E1 
10:19:21:3628 Rx 1 0x121 s 8 68 83 0A C8 07 22 15 3E 
10:19:21:3629 Rx 1 0x624 s 4 33 93 40 44 
10:19:21:3632 Rx 1 0x625 s 8 EC 51 F8 3F E1 7A 54 3F 
10:19:21:3633 Rx 1 0x626 s 4 00 00 E0 3F 
10:19:21:3635 Rx 1 0x627 s 6 18 07 1D 0D 13 13 
10:19:21:3642 Rx 1 0x117 s 8 06 00 00 00 00 00 00 00 
10:19:21:3650 Rx 1 0x100 s 8 07 BA 00 00 00 00 22 00 
10:19:21:3653 Rx 1 0x102 s 8 00 00 FF 00 01 00 00 00 
10:19:21:3655 Rx 1 0x110 s 8 00 00 00 00 00 00 00 00 
10:19:21:3657 Rx 1 0x111 s 8 24 54 02 00 00 00 00 00 
10:19:21:3660 Rx 1 0x112 s 8 03 03 22 22 03 03 02 02 
10:19:21:3662 Rx 1 0x113 s 8 B4 A4 0B 00 A7 A7 0B 00 
10:19:21:3665 Rx 1 0x114 s 8 00 00 00 00 00 08 80 00 
10:19:21:3667 Rx 1 0x115 s 8 00 00 00 00 00 08 00 00 
10:19:21:3670 Rx 1 0x116 s 8 00 00 00 00 00 00 00 00 
10:19:21:3672 Rx 1 0x118 s 8 07 00 06 EC 06 A2 06 88 
10:19:21:3674 Rx 1 0x120 s 8 AD 06 FD A8 08 4E FF E1 
10:19:21:3677 Rx 1 0x121 s 8 68 83 0A C8 07 22 15 3E 
10:19:21:3692 Rx 1 0x117 s 8 06 00 00 00 00 00 00 00 
10:19:21:3699 Rx 1 0x100 s 8 5A BB 00 00 00 00 22 00 
10:19:21:3701 Rx 1 0x102 s 8 00 00 FF 00 00 00 00 00 
10:19:21:3704 Rx 1 0x110 s 8 00 00 00 00 00 00 00 00 
10:19:21:3706 Rx 1 0x111 s 8 25 54 02 00 00 00 00 00 
10:19:21:3709 Rx 1 0x112 s 8 03 03 22 22 03 03 02 02 
10:19:21:3711 Rx 1 0x113 s 8 B9 A4 0B 00 AC A7 0B 00 
10:19:21:3713 Rx 1 0x114 s 8 00 00 00 00 00 08 80 00 
10:19:21:3716 Rx 1 0x115 s 8 00 00 00 00 00 08 00 00 
10:19:21:3718 Rx 1 0x116 s 8 00 00 00 00 00 00 00 00 
10:19:21:3721 Rx 1 0x118 s 8 07 00 06 EC 06 A2 06 88 
10:19:21:3723 Rx 1 0x120 s 8 AD 06 FD A8 08 4E FF E1 
10:19:21:3725 Rx 1 0x121 s 8 68 83 0A C8 07 22 15 3E 
10:19:21:3742 Rx 1 0x117 s 8 06 00 00 00 00 00 00 00 
10:19:21:3749 Rx 1 0x100 s 8 D4 BC 00 00 00 00 22 00 
10:19:21:3751 Rx 1 0x102 s 8 00 00 FF 00 00 00 00 00 
10:19:21:3754 Rx 1 0x110 s 8 00 00 00 00 00 00 00 00 
10:19:21:3756 Rx 1 0x111 s 8 26 54 02 00 00 00 00 00 
10:19:21:3759 Rx 1 0x112 s 8 03 03 22 22 03 03 02 02 
10:19:21:3761 Rx 1 0x113 s 8 BE A4 0B 00 B1 A7 0B 00 
10:19:21:3764 Rx 1 0x114 s 8 00 00 00 00 00 08 80 00 
10:19:21:3766 Rx 1 0x115 s 8 00 00 00 00 00 08 00 00 
10:19:21:3768 Rx 1 0x116 s 8 00 00 00 00 00 00 00 00 
10:19:21:3771 Rx 1 0x118 s 8 07 00 06 EC 06 BC 06 88 
10:19:21:3773 Rx 1 0x120 s 8 AD 06 FD A8 08 4E FF E1 
10:19:21:3776 Rx 1 0x121 s 8 68 83 0A C8 07 22 15 3E 
10:19:21:3792 Rx 1 0x117 s 8 06 00 00 00 00 00 00 00 
10:19:21:3799 Rx 1 0x100 s 8 89 BD 00 00 00 00 22 00 
10:19:21:3802 Rx 1 0x102 s 8 00 00 FF 00 00 00 00 00 
10:19:21:3804 Rx 1 0x110 s 8 00 00 00 00 00 00 00 00 
10:19:21:3806 Rx 1 0x111 s 8 27 54 02 00 00 00 00 00 
10:19:21:3809 Rx 1 0x112 s 8 03 03 22 22 03 03 02 02 
10:19:21:3811 Rx 1 0x113 s 8 C3 A4 0B 00 B6 A7 0B 00 
10:19:21:3814 Rx 1 0x114 s 8 00 00 00 00 00 08 80 00 
10:19:21:3816 Rx 1 0x115 s 8 00 00 00 00 00 08 00 00 
10:19:21:3819 Rx 1 0x116 s 8 00 00 00 00 00 00 00 00 
10:19:21:3821 Rx 1 0x118 s 8 07 00 06 F5 06 BC 06 88 
10:19:21:3823 Rx 1 0x120 s 8 AD 06 FC A8 08 4E FF E1 
10:19:21:3825 Rx 1 0x121 s 8 68 83 0A C8 07 22 15 3E 
10:19:21:3827 Rx 1 0x630 s 1 F0 
10:19:21:3843 Rx 1 0x117 s 8 06 00 00 00 00 00 00 00 
10:19:21:3849 Rx 1 0x100 s 8 6E BE 00 00 00 00 22 00 
10:19:21:3852 Rx 1 0x102 s 8 00 00 FF 00 00 00 00 00 
10:19:21:3854 Rx 1 0x110 s 8 00 00 00 00 00 00 00 00 
10:19:21:3856 Rx 1 0x111 s 8 28 54 02 00 00 00 00 00 
10:19:21:3859 Rx 1 0x112 s 8 03 03 22 22 03 03 02 02 
10:19:21:3861 Rx 1 0x113 s 8 C8 A4 0B 00 BB A7 0B 00 
10:19:21:3863 Rx 1 0x114 s 8 00 00 00 00 00 08 80 00 
10:19:21:3866 Rx 1 0x115 s 8 00 00 00 00 00 08 00 00 
10:19:21:3868 Rx 1 0x116 s 8 00 00 00 00 00 00 00 00 
10:19:21:3871 Rx 1 0x118 s 8 07 00 06 F5 06 BC 06 9B 
10:19:21:3873 Rx 1 0x120 s 8 AD 06 FC A8 08 4E FF E1 
10:19:21:3875 Rx 1 0x121 s 8 68 83 0A C8 07 22 15 3E 
10:19:21:3892 Rx 1 0x117 s 8 06 00 00 00 00 00 00 00 
10:19:21:3895 Rx 1 0x610 s 8 85 EB 81 BF D7 A3 F8 3F 
10:19:21:3897 Rx 1 0x611 s 4 A4 70 27 C0 
10:19:21:3899 Rx 1 0x100 s 8 33 BF 00 00 00 00 22 00 
10:19:21:3902 Rx 1 0x102 s 8 00 00 FF 00 00 00 00 00 
10:19:21:3904 Rx 1 0x110 s 8 00 00 00 00 00 00 00 00 
10:19:21:3907 Rx 1 0x111 s 8 29 54 02 00 00 00 00 00 
10:19:21:3909 Rx 1 0x112 s 8 03 03 22 22 03 03 02 02 
10:19:21:3911 Rx 1 0x113 s 8 CD A4 0B 00 C0 A7 0B 00 
10:19:21:3914 Rx 1 0x114 s 8 00 00 00 00 00 08 80 00 
10:19:21:3916 Rx 1 0x115 s 8 00 00 00 00 00 08 00 00 
10:19:21:3918 Rx 1 0x116 s 8 00 00 00 00 00 00 00 00 
10:19:21:3921 Rx 1 0x118 s 8 06 FD 06 F5 06 CC 06 9B 
10:19:21:3923 Rx 1 0x120 s 8 AD 06 FC A8 08 4E FF E1 
10:19:21:3926 Rx 1 0x121 s 8 68 83 0A C8 07 22 15 3E 
10:19:21:3943 Rx 1 0x117 s 8 06 00 00 00 00 00 00 00 
10:19:21:3949 Rx 1 0x100 s 8 67 C0 00 00 00 00 22 00 
10:19:21:3951 Rx 1 0x102 s 8 00 00 FF 00 FF 00 00 00 
10:19:21:3954 Rx 1 0x110 s 8 00 00 00 00 00 00 00 00 
10:19:21:3956 Rx 1 0x111 s 8 2A 54 02 00 00 00 00 00 
10:19:21:3959 Rx 1 0x112 s 8 03 03 22 22 03 03 02 02 
10:19:21:3961 Rx 1 0x113 s 8 D2 A4 0B 00 C5 A7 0B 00 
10:19:21:3963 Rx 1 0x114 s 8 00 00 00 00 00 08 80 00 
10:19:21:3966 Rx 1 0x115 s 8 00 00 00 00 00 08 00 00 
10:19:21:3968 Rx 1 0x116 s 8 00 00 00 00 00 00 00 00 
10:19:21:3971 Rx 1 0x118 s 8 06 FD 06 FB 06 CC 06 AA 
10:19:21:3973 Rx 1 0x120 s 8 AD 06 FC A8 08 4E FF E1 
10:19:21:3975 Rx 1 0x121 s 8 68 83 0A C8 07 22 15 3E 
10:19:21:3993 Rx 1 0x117 s 8 06 00 00 00 00 00 00 00 
10:19:21:3999 Rx 1 0x100 s 8 3A C1 00 00 00 00 22 00 
10:19:21:4001 Rx 1 0x102 s 8 00 00 FF 00 FF 00 00 00 
10:19:21:4003 Rx 1 0x110 s 8 00 00 00 00 00 00 00 00 
10:19:21:4006 Rx 1 0x111 s 8 2B 54 02 00 00 00 00 00 
10:19:21:4008 Rx 1 0x112 s 8 03 03 22 22 03 03 02 02 
10:19:21:4011 Rx 1 0x113 s 8 D7 A4 0B 00 CA A7 0B 00 
10:19:21:4013 Rx 1 0x114 s 8 00 00 00 00 00 08 80 00 
10:19:21:4015 Rx 1 0x115 s 8 00 00 00 00 00 08 00 00 
10:19:21:4018 Rx 1 0x116 s 8 00 00 00 00 00 00 00 00 
10:19:21:4020 Rx 1 0x118 s 8 06 FD 06 FB 06 CC 06 AA 
10:19:21:4023 Rx 1 0x120 s 8 75 06 FC A8 08 4E FF E1 
10:19:21:4025 Rx 1 0x121 s 8 68 83 0A C8 07 22 15 3E 
10:19:21:4038 Rx 1 0x600 s 8 00 00 08 00 06 00 19 03 
10:19:21:4040 Rx 1 0x601 s 6 5A FF 75 00 D2 00 
10:19:21:4043 Rx 1 0x117 s 8 06 00 00 00 00 00 00 00 
10:19:21:4048 Rx 1 0x100 s 8 DD C2 00 00 00 00 22 00 
10:19:21:4051 Rx 1 0x102 s 8 00 00 FF 00 FF 00 00 00 
10:19:21:4053 Rx 1 0x110 s 8 00 00 00 00 00 00 00 00 
10:19:21:4056 Rx 1 0x111 s 8 2C 54 02 00 00 00 00 00 
10:19:21:4058 Rx 1 0x112 s 8 03 03 22 22 03 03 02 02 
10:19:21:4061 Rx 1 0x113 s 8 DC A4 0B 00 CF A7 0B 00 
10:19:21:4063 Rx 1 0x114 s 8 00 00 00 00 00 08 80 00 
10:19:21:4065 Rx 1 0x115 s 8 00 00 00 00 00 08 00 00 
10:19:21:4068 Rx 1 0x116 s 8 00 00 00 00 00 00 00 00 
10:19:21:4070 Rx 1 0x118 s 8 07 00 06 FB 06 CC 06 AA 
10:19:21:4073 Rx 1 0x120 s 8 75 06 FC A8 08 4E FF E1 
10:19:21:4075 Rx 1 0x121 s 8 68 83 0A C8 07 22 15 3E 
10:19:21:4076 Rx 1 0x630 s 1 F0 
10:19:21:4093 Rx 1 0x117 s 8 06 00 00 00 00 00 00 00 
10:19:21:4098 Rx 1 0x100 s 8 80 C3 00 00 00 00 22 00 
10:19:21:4101 Rx 1 0x102 s 8 00 00 FF 00 FF 00 00 00 
10:19:21:4103 Rx 1 0x110 s 8 00 00 00 00 00 00 00 00 
10:19:21:4106 Rx 1 0x111 s 8 2D 54 02 00 00 00 00 00 
10:19:21:4108 Rx 1 0x112 s 8 03 03 22 22 03 03 02 02 
10:19:21:4110 Rx 1 0x113 s 8 E1 A4 0B 00 D4 A7 0B 00 
10:19:21:4113 Rx 1 0x114 s 8 00 00 00 00 00 08 80 00 
10:19:21:4115 Rx 1 0x115 s 8 00 00 00 00 00 08 00 00 
10:19:21:4118 Rx 1 0x116 s 8 00 00 00 00 00 00 00 00 
10:19:21:4120 Rx 1 0x118 s 8 07 00 07 01 06 CC 06 A6 
10:19:21:4122 Rx 1 0x120 s 8 75 06 FC A8 08 4E FF E1 
10:19:21:4125 Rx 1 0x121 s 8 68 83 0A C8 07 22 15 3E 
10:19:21:4143 Rx 1 0x117 s 8 06 00 00 00 00 00 00 00 
10:19:21:4148 Rx 1 0x100 s 8 0E C4 00 00 00 00 22 00 
10:19:21:4151 Rx 1 0x102 s 8 00 00 FF 00 FF 00 00 00 
10:19:21:4153 Rx 1 0x110 s 8 00 00 00 00 00 00 00 00 
10:19:21:4156 Rx 1 0x111 s 8 2E 54 02 00 00 00 00 00 
10:19:21:4158 Rx 1 0x112 s 8 03 03 22 22 03 03 02 02 
10:19:21:4160 Rx 1 0x113 s 8 E6 A4 0B 00 D9 A7 0B 00 
10:19:21:4163 Rx 1 0x114 s 8 00 00 00 00 00 08 80 00 
10:19:21:4165 Rx 1 0x115 s 8 00 00 00 00 00 08 00 00 
10:19:21:4168 Rx 1 0x116 s 8 00 00 00 00 00 00 00 00 
10:19:21:4170 Rx 1 0x118 s 8 06 FA 07 01 06 CC 06 A6 
10:19:21:4172 Rx 1 0x120 s 8 75 06 FC A8 08 4E FF E1 
10:19:21:4174 Rx 1 0x121 s 8 68 83 0A C8 07 22 15 3E 
10:19:21:4194 Rx 1 0x117 s 8 06 00 00 00 00 00 00 00 
10:19:21:4198 Rx 1 0x100 s 8 53 C5 00 00 00 00 22 00 
10:19:21:4201 Rx 1 0x102 s 8 00 00 FF 00 FF 00 00 00 
10:19:21:4203 Rx 1 0x110 s 8 00 00 00 00 00 00 00 00 
10:19:21:4205 Rx 1 0x111 s 8 2F 54 02 00 00 00 00 00 
10:19:21:4208 Rx 1 0x112 s 8 03 03 22 22 03 03 02 02 
10:19:21:4210 Rx 1 0x113 s 8 EB A4 0B 00 DE A7 0B 00 
10:19:21:4212 Rx 1 0x114 s 8 00 00 00 00 00 08 80 00 
10:19:21:4215 Rx 1 0x115 s 8 00 00 00 00 00 08 00 00 
10:19:21:4218 Rx 1 0x116 s 8 00 00 00 00 00 00 00 00 
10:19:21:4220 Rx 1 0x118 s 8 06 FA 07 01 06 B5 06 A6 
10:19:21:4222 Rx 1 0x120 s 8 75 06 FD A8 08 4E FF E1 
10:19:21:4224 Rx 1 0x121 s 8 68 83 0A C8 07 22 15 3E 
10:19:21:4244 Rx 1 0x117 s 8 06 00 00 00 00 00 00 00 
10:19:21:4247 Rx 1 0x100 s 8 B4 C6 00 00 00 00 22 00 
10:19:21:4250 Rx 1 0x102 s 8 00 00 FF 00 FF 00 00 00 
10:19:21:4253 Rx 1 0x110 s 8 00 00 00 00 00 00 00 00 
10:19:21:4255 Rx 1 0x111 s 8 30 54 02 00 00 00 00 00 
10:19:21:4257 Rx 1 0x112 s 8 03 03 22 22 03 03 02 02 
10:19:21:4260 Rx 1 0x113 s 8 F0 A4 0B 00 E3 A7 0B 00 
10:19:21:4262 Rx 1 0x114 s 8 00 00 00 00 00 08 80 00 
10:19:21:4265 Rx 1 0x115 s 8 00 00 00 00 00 08 00 00 
10:19:21:4267 Rx 1 0x116 s 8 00 00 00 00 00 00 00 00 
10:19:21:4269 Rx 1 0x118 s 8 06 FA 06 F8 06 B5 06 9D 
10:19:21:4272 Rx 1 0x120 s 8 75 06 FD A8 08 4E FF E1 
10:19:21:4274 Rx 1 0x121 s 8 68 83 0A C8 07 22 15 3E 
10:19:21:4294 Rx 1 0x117 s 8 06 00 00 00 00 00 00 00 
10:19:21:4297 Rx 1 0x100 s 8 E9 C7 00 00 00 00 22 00 
10:19:21:4300 Rx 1 0x102 s 8 00 00 FF 00 FF 00 00 00 
10:19:21:4302 Rx 1 0x110 s 8 00 00 00 00 00 00 00 00 
10:19:21:4305 Rx 1 0x111 s 8 31 54 02 00 00 00 00 00 
10:19:21:4307 Rx 1 0x112 s 8 03 03 22 22 03 03 02 02 
10:19:21:4309 Rx 1 0x113 s 8 F5 A4 0B 00 E8 A7 0B 00 
10:19:21:4312 Rx 1 0x114 s 8 00 00 00 00 00 08 80 00 
10:19:21:4314 Rx 1 0x115 s 8 00 00 00 00 00 08 00 00 
10:19:21:4317 Rx 1 0x116 s 8 00 00 00 00 00 00 00 00 
10:19:21:4319 Rx 1 0x118 s 8 07 01 06 F8 06 B5 06 9D 
10:19:21:4321 Rx 1 0x120 s 8 75 06 FC A8 08 4E FF E1 
10:19:21:4324 Rx 1 0x121 s 8 68 83 0A C8 07 22 15 3E 
10:19:21:4325 Rx 1 0x630 s 1 F0 
10:19:21:4344 Rx 1 0x117 s 8 06 00 00 00 00 00 00 00 
10:19:21:4347 Rx 1 0x100 s 8 B5 C8 00 00 00 00 22 00 
10:19:21:4349 Rx 1 0x102 s 8 00 00 FF 00 FF 00 00 00 
10:19:21:4352 Rx 1 0x110 s 8 00 00 00 00 00 00 00 00 
10:19:21:4355 Rx 1 0x111 s 8 32 54 02 00 00 00 00 00 
10:19:21:4357 Rx 1 0x112 s 8 03 03 22 22 03 03 02 02 
10:19:21:4359 Rx 1 0x113 s 8 FA A4 0B 00 ED A7 0B 00 
10:19:21:4362 Rx 1 0x114 s 8 00 00 00 00 00 08 80 00 
10:19:21:4364 Rx 1 0x115 s 8 00 00 00 00 00 08 00 00 
10:19:21:4366 Rx 1 0x116 s 8 00 00 00 00 00 00 00 00 
10:19:21:4369 Rx 1 0x118 s 8 07 01 06 F3 06 9E 06 9D 
10:19:21:4371 Rx 1 0x120 s 8 75 06 FC A8 08 4E FF E1 
10:19:21:4374 Rx 1 0x121 s 8 68 83 0A C8 07 22 15 3E 
10:19:21:4394 Rx 1 0x117 s 8 06 00 00 00 00 00 00 00 
10:19:21:4397 Rx 1 0x610 s 8 85 EB 81 BF D7 A3 F8 3F 
10:19:21:4399 Rx 1 0x100 s 8 E8 C9 00 00 00 00 22 00 
10:19:21:4401 Rx 1 0x102 s 8 00 00 FF 00 FF 00 00 00 
10:19:21:4404 Rx 1 0x110 s 8 00 00 00 00 00 00 00 00 
10:19:21:4407 Rx 1 0x111 s 8 33 54 02 00 00 00 00 00 
10:19:21:4409 Rx 1 0x112 s 8 03 03 22 22 03 03 02 02 
10:19:21:4411 Rx 1 0x113 s 8 FF A4 0B 00 F2 A7 0B 00 
10:19:21:4413 Rx 1 0x114 s 8 00 00 00 00 00 08 80 00 
10:19:21:4416 Rx 1 0x115 s 8 00 00 00 00 00 08 00 00 
10:19:21:4419 Rx 1 0x116 s 8 00 00 00 00 00 00 00 00 
10:19:21:4421 Rx 1 0x118 s 8 07 01 06 F3 06 9E 06 9D 
10:19:21:4423 Rx 1 0x120 s 8 75 06 FB A8 08 4E FF E1 
10:19:21:4425 Rx 1 0x121 s 8 68 83 0A C8 07 22 15 3E 
10:19:21:4427 Rx 1 0x611 s 4 A4 70 27 C0 
10:19:21:4445 Rx 1 0x117 s 8 06 00 00 00 00 00 00 00 
10:19:21:4447 Rx 1 0x100 s 8 0F CA 00 00 00 00 22 00 
10:19:21:4449 Rx 1 0x102 s 8 00 00 FF 00 FF 00 00 00 
10:19:21:4452 Rx 1 0x110 s 8 00 00 00 00 00 00 00 00 
10:19:21:4454 Rx 1 0x111 s 8 34 54 02 00 00 00 00 00 
10:19:21:4457 Rx 1 0x112 s 8 03 03 22 22 03 03 02 02 
10:19:21:4459 Rx 1 0x113 s 8 04 A5 0B 00 F7 A7 0B 00 
10:19:21:4462 Rx 1 0x114 s 8 00 00 00 00 00 08 80 00 
10:19:21:4464 Rx 1 0x115 s 8 00 00 00 00 00 08 00 00 
10:19:21:4466 Rx 1 0x116 s 8 00 00 00 00 00 00 00 00 
10:19:21:4469 Rx 1 0x118 s 8 07 00 06 F3 06 9E 06 92 
10:19:21:4471 Rx 1 0x120 s 8 75 06 FB A8 08 4E FF E1 
10:19:21:4473 Rx 1 0x121 s 8 68 83 0A C8 07 22 15 3E 
10:19:21:4495 Rx 1 0x117 s 8 06 00 00 00 00 00 00 00 
10:19:21:4497 Rx 1 0x100 s 8 52 CB 00 00 00 00 22 00 
10:19:21:4500 Rx 1 0x102 s 8 00 00 FF 00 FF 00 00 00 
10:19:21:4502 Rx 1 0x110 s 8 00 00 00 00 00 00 00 00 
10:19:21:4504 Rx 1 0x111 s 8 35 54 02 00 00 00 00 00 
10:19:21:4507 Rx 1 0x112 s 8 03 03 22 22 03 03 02 02 
10:19:21:4509 Rx 1 0x113 s 8 09 A5 0B 00 FC A7 0B 00 
10:19:21:4512 Rx 1 0x114 s 8 00 00 00 00 00 08 80 00 
10:19:21:4514 Rx 1 0x115 s 8 00 00 00 00 00 08 00 00 
10:19:21:4517 Rx 1 0x116 s 8 00 00 00 00 00 00 00 00 
10:19:21:4519 Rx 1 0x118 s 8 07 00 06 EF 06 80 06 92 
10:19:21:4521 Rx 1 0x120 s 8 75 06 FA A8 08 4E FF E1 
10:19:21:4523 Rx 1 0x121 s 8 68 83 0A C8 07 22 15 3E 
10:19:21:4545 Rx 1 0x117 s 8 06 00 00 00 00 00 00 00 
10:19:21:4547 Rx 1 0x100 s 8 DC CC 00 00 00 00 22 00 
10:19:21:4550 Rx 1 0x102 s 8 00 00 FF 00 FF 00 00 00 
10:19:21:4552 Rx 1 0x110 s 8 00 00 00 00 00 00 00 00 
10:19:21:4555 Rx 1 0x111 s 8 36 54 02 00 00 00 00 00 
10:19:21:4557 Rx 1 0x112 s 8 03 03 22 22 03 03 02 02 
10:19:21:4559 Rx 1 0x113 s 8 0E A5 0B 00 01 A8 0B 00 
10:19:21:4562 Rx 1 0x114 s 8 00 00 00 00 00 08 80 00 
10:19:21:4564 Rx 1 0x115 s 8 00 00 00 00 00 08 00 00 
10:19:21:4567 Rx 1 0x116 s 8 00 00 00 00 00 00 00 00 
10:19:21:4569 Rx 1 0x118 s 8 07 00 06 EF 06 80 06 92 
10:19:21:4572 Rx 1 0x120 s 8 75 06 FA A8 08 4E FF E1 
10:19:21:4574 Rx 1 0x121 s 8 68 83 0A C8 07 22 15 3E 
10:19:21:4575 Rx 1 0x630 s 1 F0 
10:19:21:4590 Rx 1 0x620 s 3 02 0A 03 
10:19:21:4592 Rx 1 0x621 s 8 9A 19 7E 43 89 41 64 41 
10:19:21:4594 Rx 1 0x622 s 7 58 22 80 41 31 00 57 
10:19:21:4596 Rx 1 0x100 s 8 81 CD 00 00 00 00 22 00 
10:19:21:4599 Rx 1 0x102 s 8 00 00 FF 00 FF 00 00 00 
10:19:21:4602 Rx 1 0x110 s 8 00 00 00 00 00 00 00 00 
10:19:21:4604 Rx 1 0x111 s 8 37 54 02 00 00 00 00 00 
10:19:21:4606 Rx 1 0x112 s 8 03 03 22 22 03 03 02 02 
10:19:21:4608 Rx 1 0x113 s 8 13 A5 0B 00 06 A8 0B 00 
10:19:21:4611 Rx 1 0x114 s 8 00 00 00 00 00 08 80 00 
10:19:21:4614 Rx 1 0x115 s 8 00 00 00 00 00 08 00 00 
10:19:21:4616 Rx 1 0x116 s 8 00 00 00 00 00 00 00 00 
10:19:21:4619 Rx 1 0x117 s 8 06 00 00 00 00 00 00 00 
10:19:21:4621 Rx 1 0x118 s 8 07 07 06 EF 06 80 06 81 
10:19:21:4623 Rx 1 0x120 s 8 75 06 F9 A8 08 4E FF E1 
10:19:21:4625 Rx 1 0x121 s 8 68 83 0A C8 07 22 15 3E 
10:19:21:4628 Rx 1 0x623 s 7 76 D0 10 42 10 00 53 
10:19:21:4629 Rx 1 0x624 s 4 33 93 40 44 
10:19:21:4631 Rx 1 0x625 s 8 EC 51 F8 3F E1 7A 54 3F 
10:19:21:4633 Rx 1 0x626 s 4 00 00 E0 3F 
10:19:21:4635 Rx 1 0x627 s 6 18 07 1D 0D 13 13 
10:19:21:4645 Rx 1 0x117 s 8 06 00 00 00 00 00 00 00 
10:19:21:4648 Rx 1 0x100 s 8 66 CE 00 00 00 00 22 00 
10:19:21:4650 Rx 1 0x102 s 8 00 00 FF 00 FF 00 00 00 
10:19:21:4653 Rx 1 0x110 s 8 00 00 00 00 00 00 00 00 
10:19:21:4655 Rx 1 0x111 s 8 38 54 02 00 00 00 00 00 
10:19:21:4657 Rx 1 0x112 s 8 03 03 22 22 03 03 02 02 
10:19:21:4660 Rx 1 0x113 s 8 18 A5 0B 00 0B A8 0B 00 
10:19:21:4662 Rx 1 0x114 s 8 00 00 00 00 00 08 80 00 
10:19:21:4665 Rx 1 0x115 s 8 00 00 00 00 00 08 00 00 
10:19:21:4667 Rx 1 0x116 s 8 00 00 00 00 00 00 00 00 
10:19:21:4669 Rx 1 0x118 s 8 07 07 06 E8 06 6A 06 81 
10:19:21:4672 Rx 1 0x120 s 8 75 06 F9 A8 08 4E FF E1 
10:19:21:4674 Rx 1 0x121 s 8 68 83 0A C8 07 22 15 3E 
10:19:21:4695 Rx 1 0x117 s 8 06 00 00 00 00 00 00 00 
10:19:21:4698 Rx 1 0x100 s 8 3B CF 00 00 00 00 22 00 
10:19:21:4700 Rx 1 0x102 s 8 00 00 FF 00 FF 00 00 00 
10:19:21:4703 Rx 1 0x110 s 8 00 00 00 00 00 00 00 00 
10:19:21:4705 Rx 1 0x111 s 8 39 54 02 00 00 00 00 00 
10:19:21:4707 Rx 1 0x112 s 8 03 03 22 22 03 03 02 02 
10:19:21:4710 Rx 1 0x113 s 8 1D A5 0B 00 10 A8 0B 00 
10:19:21:4713 Rx 1 0x114 s 8 00 00 00 00 00 08 80 00 
10:19:21:4715 Rx 1 0x115 s 8 00 00 00 00 00 08 00 00 
10:19:21:4717 Rx 1 0x116 s 8 00 00 00 00 00 00 00 00 
10:19:21:4720 Rx 1 0x118 s 8 07 07 06 E8 06 6A 06 79 
10:19:21:4722 Rx 1 0x120 s 8 75 06 F9 A8 08 4E FF E1 
10:19:21:4724 Rx 1 0x121 s 8 68 83 0A C8 07 22 15 3E 
10:19:21:4745 Rx 1 0x100 s 8 DE D0 00 00 00 00 22 00 
10:19:21:4748 Rx 1 0x102 s 8 00 00 FF 00 FF 00 00 00 
10:19:21:4750 Rx 1 0x110 s 8 00 00 00 00 00 00 00 00 
10:19:21:4753 Rx 1 0x111 s 8 3A 54 02 00 00 00 00 00 
10:19:21:4755 Rx 1 0x112 s 8 03 03 22 22 03 03 02 02 
10:19:21:4757 Rx 1 0x113 s 8 22 A5 0B 00 15 A8 0B 00 
10:19:21:4760 Rx 1 0x114 s 8 00 00 00 00 00 08 80 00 
10:19:21:4762 Rx 1 0x115 s 8 00 00 00 00 00 08 00 00 
10:19:21:4765 Rx 1 0x116 s 8 00 00 00 00 00 00 00 00 
10:19:21:4767 Rx 1 0x117 s 8 06 00 00 00 00 00 00 00 
10:19:21:4770 Rx 1 0x118 s 8 07 02 06 E8 06 6A 06 79 
10:19:21:4772 Rx 1 0x120 s 8 75 06 F9 A8 08 4E FF E1 
10:19:21:4774 Rx 1 0x121 s 8 68 83 0A C8 07 22 15 3E 
10:19:21:4788 Rx 1 0x600 s 8 FE FF 0B 00 FA FF 19 03 
10:19:21:4790 Rx 1 0x601 s 6 45 FF 98 00 DD 00 
10:19:21:4795 Rx 1 0x100 s 8 83 D1 00 00 00 00 22 00 
10:19:21:4798 Rx 1 0x102 s 8 00 00 FF 00 FF 00 00 00 
10:19:21:4800 Rx 1 0x110 s 8 00 00 00 00 00 00 00 00 
10:19:21:4803 Rx 1 0x111 s 8 3B 54 02 00 00 00 00 00 
10:19:21:4805 Rx 1 0x112 s 8 03 03 22 22 03 03 02 02 
10:19:21:4808 Rx 1 0x113 s 8 27 A5 0B 00 1A A8 0B 00 
10:19:21:4810 Rx 1 0x114 s 8 00 00 00 00 00 08 80 00 
10:19:21:4812 Rx 1 0x115 s 8 00 00 00 00 00 08 00 00 
10:19:21:4815 Rx 1 0x116 s 8 00 00 00 00 00 00 00 00 
10:19:21:4817 Rx 1 0x117 s 8 06 00 00 00 00 00 00 00 
10:19:21:4820 Rx 1 0x118 s 8 07 02 06 E4 06 6A 06 79 
10:19:21:4822 Rx 1 0x120 s 8 75 06 F7 A8 08 4E FF E1 
10:19:21:4824 Rx 1 0x121 s 8 68 83 0A C8 07 22 15 3E 
10:19:21:4826 Rx 1 0x630 s 1 F0 
10:19:21:4845 Rx 1 0x100 s 8 64 D2 00 00 00 00 22 00 
10:19:21:4848 Rx 1 0x102 s 8 00 00 FF 00 FF 00 00 00 
10:19:21:4850 Rx 1 0x110 s 8 00 00 00 00 00 00 00 00 
10:19:21:4852 Rx 1 0x111 s 8 3C 54 02 00 00 00 00 00 
10:19:21:4855 Rx 1 0x112 s 8 03 03 22 22 03 03 02 02 
10:19:21:4857 Rx 1 0x113 s 8 2C A5 0B 00 1F A8 0B 00 
10:19:21:4860 Rx 1 0x114 s 8 00 00 00 00 00 08 80 00 
10:19:21:4862 Rx 1 0x115 s 8 00 00 00 00 00 08 00 00 
10:19:21:4865 Rx 1 0x116 s 8 00 00 00 00 00 00 00 00 
10:19:21:4867 Rx 1 0x117 s 8 06 00 00 00 00 00 00 00 
10:19:21:4870 Rx 1 0x118 s 8 06 FD 06 E4 06 6A 06 87 
10:19:21:4872 Rx 1 0x120 s 8 75 06 F7 A8 08 4E FF E1 
10:19:21:4874 Rx 1 0x121 s 8 68 83 0A C8 07 22 15 3E 
10:19:21:4895 Rx 1 0x100 s 8 39 D3 00 00 00 00 22 00 
10:19:21:4897 Rx 1 0x102 s 8 00 00 FF 00 FF 00 00 00 
10:19:21:4900 Rx 1 0x110 s 8 00 00 00 00 00 00 00 00 
10:19:21:4902 Rx 1 0x111 s 8 3D 54 02 00 00 00 00 00 
10:19:21:4905 Rx 1 0x112 s 8 03 03 22 22 03 03 02 02 
10:19:21:4907 Rx 1 0x113 s 8 31 A5 0B 00 24 A8 0B 00 
10:19:21:4910 Rx 1 0x114 s 8 00 00 00 00 00 08 80 00 
10:19:21:4912 Rx 1 0x115 s 8 00 00 00 00 00 08 00 00 
10:19:21:4914 Rx 1 0x116 s 8 00 00 00 00 00 00 00 00 
10:19:21:4917 Rx 1 0x117 s 8 06 00 00 00 00 00 00 00 
10:19:21:4919 Rx 1 0x118 s 8 06 FD 06 E4 06 6A 06 87 
10:19:21:4922 Rx 1 0x120 s 8 75 06 F6 A8 08 4E FF E1 
10:19:21:4924 Rx 1 0x121 s 8 68 83 0A C8 07 22 15 3E 
10:19:21:4926 Rx 1 0x610 s 8 66 66 DA BF 0A D7 93 3E 
10:19:21:4928 Rx 1 0x611 s 4 00 00 44 C0 
10:19:21:4945 Rx 1 0x100 s 8 B7 D4 00 00 00 00 22 00 
10:19:21:4947 Rx 1 0x102 s 8 00 00 FF 00 FF 00 00 00 
10:19:21:4950 Rx 1 0x110 s 8 00 00 00 00 00 00 00 00 
10:19:21:4952 Rx 1 0x111 s 8 3E 54 02 00 00 00 00 00 
10:19:21:4954 Rx 1 0x112 s 8 03 03 22 22 03 03 02 02 
10:19:21:4957 Rx 1 0x113 s 8 36 A5 0B 00 29 A8 0B 00 
10:19:21:4959 Rx 1 0x114 s 8 00 00 00 00 00 08 80 00 
10:19:21:4962 Rx 1 0x115 s 8 00 00 00 00 00 08 00 00 
10:19:21:4964 Rx 1 0x116 s 8 00 00 00 00 00 00 00 00 
10:19:21:4967 Rx 1 0x117 s 8 06 00 00 00 00 00 00 00 
10:19:21:4969 Rx 1 0x118 s 8 06 FD 06 E5 06 82 06 87 
10:19:21:4971 Rx 1 0x120 s 8 75 06 F6 A8 08 4E FF E1 
10:19:21:4974 Rx 1 0x121 s 8 68 83 0A C8 07 22 15 3E 
10:19:21:4995 Rx 1 0x100 s 8 EA D5 00 00 00 00 22 00 
10:19:21:4997 Rx 1 0x102 s 8 00 00 FF 00 FF 00 00 00 
10:19:21:5000 Rx 1 0x110 s 8 00 00 00 00 00 00 00 00 
10:19:21:5002 Rx 1 0x111 s 8 3F 54 02 00 00 00 00 00 
10:19:21:5004 Rx 1 0x112 s 8 03 03 22 22 03 03 02 02 
10:19:21:5007 Rx 1 0x113 s 8 3B A5 0B 00 2E A8 0B 00 
10:19:21:5009 Rx 1 0x114 s 8 00 00 00 00 00 08 80 00 
10:19:21:5012 Rx 1 0x115 s 8 00 00 00 00 00 08 00 00 
10:19:21:5014 Rx 1 0x116 s 8 00 00 00 00 00 00 00 00 
10:19:21:5017 Rx 1 0x117 s 8 06 00 00 00 00 00 00 00 
10:19:21:5019 Rx 1 0x118 s 8 06 FA 06 E5 06 82 06 9B 
10:19:21:5021 Rx 1 0x120 s 8 CE 06 F4 A8 08 4E FF E1 
10:19:21:5024 Rx 1 0x121 s 8 68 83 0A C8 07 22 15 3E 
10:19:21:5044 Rx 1 0x100 s 8 0D D6 00 00 00 00 22 00 
10:19:21:5047 Rx 1 0x102 s 8 00 00 FF 00 FF 00 00 00 
10:19:21:5050 Rx 1 0x110 s 8 00 00 00 00 00 00 00 00 
10:19:21:5052 Rx 1 0x111 s 8 40 54 02 00 00 00 00 00 
10:19:21:5054 Rx 1 0x112 s 8 03 03 22 22 03 03 02 02 
10:19:21:5057 Rx 1 0x113 s 8 40 A5 0B 00 33 A8 0B 00 
10:19:21:5059 Rx 1 0x114 s 8 00 00 00 00 00 08 80 00 
10:19:21:5062 Rx 1 0x115 s 8 00 00 00 00 00 08 00 00 
10:19:21:5064 Rx 1 0x116 s 8 00 00 00 00 00 00 00 00 
10:19:21:5067 Rx 1 0x117 s 8 06 00 00 00 00 00 00 00 
10:19:21:5069 Rx 1 0x118 s 8 06 FA 06 E5 06 82 06 9B 
10:19:21:5071 Rx 1 0x120 s 8 CE 06 F4 A8 08 4E FF E1 
10:19:21:5073 Rx 1 0x121 s 8 68 83 0A C8 07 22 15 3E 
10:19:21:5075 Rx 1 0x630 s 1 F0 
10:19:21:5094 Rx 1 0x100 s 8 50 D7 00 00 00 00 22 00 
10:19:21:5097 Rx 1 0x102 s 8 00 00 FF 00 FF 00 00 00 
10:19:21:5099 Rx 1 0x110 s 8 00 00 00 00 00 00 00 00 
10:19:21:5102 Rx 1 0x111 s 8 41 54 02 00 00 00 00 00 
10:19:21:5104 Rx 1 0x112 s 8 03 03 22 22 03 03 02 02 
10:19:21:5106 Rx 1 0x113 s 8 45 A5 0B 00 38 A8 0B 00 
10:19:21:5109 Rx 1 0x114 s 8 00 00 00 00 00 08 80 00 
10:19:21:5111 Rx 1 0x115 s 8 00 00 00 00 00 08 00 00 
10:19:21:5114 Rx 1 0x116 s 8 00 00 00 00 00 00 00 00 
10:19:21:5116 Rx 1 0x117 s 8 06 00 00 00 00 00 00 00 
10:19:21:5119 Rx 1 0x118 s 8 06 FA 06 E7 06 92 06 9B 
10:19:21:5121 Rx 1 0x120 s 8 CE 06 F3 A8 08 4E FF E1 
10:19:21:5123 Rx 1 0x121 s 8 68 83 0A C8 07 22 15 3E 
10:19:21:5144 Rx 1 0x100 s 8 0C D8 00 00 00 00 22 00 
10:19:21:5146 Rx 1 0x102 s 8 00 00 FF 00 FF 00 00 00 
10:19:21:5149 Rx 1 0x110 s 8 00 00 00 00 00 00 00 00 
10:19:21:5152 Rx 1 0x111 s 8 42 54 02 00 00 00 00 00 
10:19:21:5154 Rx 1 0x112 s 8 03 03 22 22 03 03 02 02 
10:19:21:5156 Rx 1 0x113 s 8 4A A5 0B 00 3D A8 0B 00 
10:19:21:5158 Rx 1 0x114 s 8 00 00 00 00 00 08 80 00 
10:19:21:5161 Rx 1 0x115 s 8 00 00 00 00 00 08 00 00 
10:19:21:5163 Rx 1 0x116 s 8 00 00 00 00 00 00 00 00 
10:19:21:5166 Rx 1 0x117 s 8 06 00 00 00 00 00 00 00 
10:19:21:5168 Rx 1 0x118 s 8 06 F0 06 E7 06 92 06 B0 
10:19:21:5171 Rx 1 0x120 s 8 CE 06 F3 A8 08 4E FF E1 
10:19:21:5173 Rx 1 0x121 s 8 68 83 0A C8 07 22 15 3E 
10:19:21:5194 Rx 1 0x100 s 8 51 D9 00 00 00 00 22 00 
10:19:21:5196 Rx 1 0x102 s 8 00 00 FF 00 FF 00 00 00 
10:19:21:5198 Rx 1 0x110 s 8 00 00 00 00 00 00 00 00 
10:19:21:5201 Rx 1 0x111 s 8 43 54 02 00 00 00 00 00 
10:19:21:5203 Rx 1 0x112 s 8 03 03 22 22 03 03 02 02 
10:19:21:5206 Rx 1 0x113 s 8 4F A5 0B 00 42 A8 0B 00 
10:19:21:5208 Rx 1 0x114 s 8 00 00 00 00 00 08 80 00 
10:19:21:5210 Rx 1 0x115 s 8 00 00 00 00 00 08 00 00 
10:19:21:5213 Rx 1 0x116 s 8 00 00 00 00 00 00 00 00 
10:19:21:5216 Rx 1 0x117 s 8 06 00 00 00 00 00 00 00 
10:19:21:5218 Rx 1 0x118 s 8 06 F0 06 E7 06 92 06 B0 
10:19:21:5220 Rx 1 0x120 s 8 CE 06 F3 A8 08 4E FF E1 
10:19:21:5222 Rx 1 0x121 s 8 68 83 0A C8 07 22 15 3E 
10:19:21:5244 Rx 1 0x100 s 8 B6 DA 00 00 00 00 22 00 
10:19:21:5246 Rx 1 0x102 s 8 00 00 FF 00 FF 00 00 00 
10:19:21:5248 Rx 1 0x110 s 8 00 00 00 00 00 00 00 00 
10:19:21:5251 Rx 1 0x111 s 8 44 54 02 00 00 00 00 00 
10:19:21:5254 Rx 1 0x112 s 8 03 03 22 22 03 03 02 02 
10:19:21:5256 Rx 1 0x113 s 8 54 A5 0B 00 47 A8 0B 00 
10:19:21:5258 Rx 1 0x114 s 8 00 00 00 00 00 08 80 00 
10:19:21:5261 Rx 1 0x115 s 8 00 00 00 00 00 08 00 00 
10:19:21:5263 Rx 1 0x116 s 8 00 00 00 00 00 00 00 00 
10:19:21:5265 Rx 1 0x117 s 8 06 00 00 00 00 00 00 00 
10:19:21:5268 Rx 1 0x118 s 8 06 F0 06 E7 06 9E 06 B0 
10:19:21:5270 Rx 1 0x120 s 8 CE 06 F3 A8 08 4E FF E1 
10:19:21:5272 Rx 1 0x121 s 8 68 83 0A C8 07 22 15 3E 
10:19:21:5293 Rx 1 0x100 s 8 EB DB 00 00 00 00 22 00 
10:19:21:5296 Rx 1 0x102 s 8 00 00 FF 00 FF 00 00 00 
10:19:21:5298 Rx 1 0x110 s 8 00 00 00 00 00 00 00 00 
10:19:21:5300 Rx 1 0x111 s 8 45 54 02 00 00 00 00 00 
10:19:21:5303 Rx 1 0x112 s 8 03 03 22 22 03 03 02 02 
10:19:21:5305 Rx 1 0x113 s 8 59 A5 0B 00 4C A8 0B 00 
10:19:21:5308 Rx 1 0x114 s 8 00 00 00 00 00 08 80 00 
10:19:21:5310 Rx 1 0x115 s 8 00 00 00 00 00 08 00 00 
10:19:21:5312 Rx 1 0x116 s 8 00 00 00 00 00 00 00 00 
10:19:21:5315 Rx 1 0x117 s 8 06 00 00 00 00 00 00 00 
10:19:21:5318 Rx 1 0x118 s 8 06 E9 06 E7 06 9E 06 BE 
10:19:21:5320 Rx 1 0x120 s 8 CE 06 F3 A8 08 4E FF E1 
10:19:21:5322 Rx 1 0x121 s 8 68 83 0A C8 07 22 15 3E 
10:19:21:5323 Rx 1 0x630 s 1 F0 
10:19:21:5343 Rx 1 0x100 s 8 65 DC 00 00 00 00 22 00 
10:19:21:5345 Rx 1 0x102 s 8 00 00 FF 00 FF 00 00 00 
10:19:21:5348 Rx 1 0x110 s 8 00 00 00 00 00 00 00 00 
10:19:21:5350 Rx 1 0x111 s 8 46 54 02 00 00 00 00 00 
10:19:21:5352 Rx 1 0x112 s 8 03 03 22 22 03 03 02 02 
10:19:21:5355 Rx 1 0x113 s 8 5E A5 0B 00 51 A8 0B 00 
10:19:21:5358 Rx 1 0x114 s 8 00 00 00 00 00 08 80 00 
10:19:21:5360 Rx 1 0x115 s 8 00 00 00 00 00 08 00 00 
10:19:21:5362 Rx 1 0x116 s 8 00 00 00 00 00 00 00 00 
10:19:21:5365 Rx 1 0x117 s 8 06 00 00 00 00 00 00 00 
10:19:21:5367 Rx 1 0x118 s 8 06 E9 06 E7 06 9E 06 BE 
10:19:21:5370 Rx 1 0x120 s 8 CE 06 F3 A8 08 4E FF E1 
10:19:21:5372 Rx 1 0x121 s 8 68 83 0A C8 07 22 15 3E 
10:19:21:5393 Rx 1 0x100 s 8 38 DD 00 00 00 00 22 00 
10:19:21:5396 Rx 1 0x102 s 8 00 00 FF 00 FF 00 00 00 
10:19:21:5398 Rx 1 0x110 s 8 00 00 00 00 00 00 00 00 
10:19:21:5401 Rx 1 0x111 s 8 47 54 02 00 00 00 00 00 
10:19:21:5403 Rx 1 0x112 s 8 03 03 22 22 03 03 02 02 
10:19:21:5405 Rx 1 0x113 s 8 63 A5 0B 00 56 A8 0B 00 
10:19:21:5408 Rx 1 0x114 s 8 00 00 00 00 00 08 80 00 
10:19:21:5410 Rx 1 0x115 s 8 00 00 00 00 00 08 00 00 
10:19:21:5413 Rx 1 0x116 s 8 00 00 00 00 00 00 00 00 
10:19:21:5415 Rx 1 0x117 s 8 06 00 00 00 00 00 00 00 
10:19:21:5417 Rx 1 0x118 s 8 06 E9 06 E7 06 AC 06 BE 
10:19:21:5420 Rx 1 0x120 s 8 CE 06 F4 A8 08 4E FF E1 
10:19:21:5422 Rx 1 0x121 s 8 68 83 0A C8 07 22 15 3E 
10:19:21:5424 Rx 1 0x610 s 8 66 66 DA BF 0A D7 93 3E 
10:19:21:5426 Rx 1 0x611 s 4 00 00 44 C0 
10:19:21:5443 Rx 1 0x100 s 8 DF DE 00 00 00 00 22 00 
10:19:21:5445 Rx 1 0x102 s 8 00 00 FF 00 FF 00 00 00 
10:19:21:5448 Rx 1 0x110 s 8 00 00 00 00 00 00 00 00 
10:19:21:5450 Rx 1 0x111 s 8 48 54 02 00 00 00 00 00 
10:19:21:5452 Rx 1 0x112 s 8 03 03 22 22 03 03 02 02 
10:19:21:5455 Rx 1 0x113 s 8 68 A5 0B 00 5B A8 0B 00 
10:19:21:5457 Rx 1 0x114 s 8 00 00 00 00 00 08 80 00 
10:19:21:5460 Rx 1 0x115 s 8 00 00 00 00 00 08 00 00 
10:19:21:5462 Rx 1 0x116 s 8 00 00 00 00 00 00 00 00 
10:19:21:5465 Rx 1 0x117 s 8 06 00 00 00 00 00 00 00 
10:19:21:5467 Rx 1 0x118 s 8 06 EA 06 E7 06 AC 06 BD 
10:19:21:5469 Rx 1 0x120 s 8 CE 06 F4 A8 08 4E FF E1 
10:19:21:5472 Rx 1 0x121 s 8 68 83 0A C8 07 22 15 3E 
10:19:21:5492 Rx 1 0x100 s 8 82 DF 00 00 00 00 22 00 
10:19:21:5495 Rx 1 0x102 s 8 00 00 FF 00 FF 00 00 00 
10:19:21:5498 Rx 1 0x110 s 8 00 00 00 00 00 00 00 00 
10:19:21:5500 Rx 1 0x111 s 8 49 54 02 00 00 00 00 00 
10:19:21:5502 Rx 1 0x112 s 8 03 03 22 22 03 03 02 02 
10:19:21:5504 Rx 1 0x113 s 8 6D A5 0B 00 60 A8 0B 00 
10:19:21:5507 Rx 1 0x114 s 8 00 00 00 00 00 08 80 00 
10:19:21:5510 Rx 1 0x115 s 8 00 00 00 00 00 08 00 00 
10:19:21:5512 Rx 1 0x116 s 8 00 00 00 00 00 00 00 00 
10:19:21:5515 Rx 1 0x117 s 8 06 00 00 00 00 00 00 00 
10:19:21:5517 Rx 1 0x118 s 8 06 EA 06 E5 06 AC 06 BD 
10:19:21:5519 Rx 1 0x120 s 8 CE 06 F4 A8 08 4E FF E1 
10:19:21:5521 Rx 1 0x121 s 8 68 83 0A C8 07 22 15 3E 
10:19:21:5538 Rx 1 0x600 s 8 06 00 07 00 F7 FF 18 03 
10:19:21:5540 Rx 1 0x601 s 6 45 FF 98 00 DD 00 
10:19:21:5543 Rx 1 0x100 s 8 08 E0 00 00 00 00 22 00 
10:19:21:5545 Rx 1 0x102 s 8 00 00 FF 00 FF 00 00 00 
10:19:21:5547 Rx 1 0x110 s 8 00 00 00 00 00 00 00 00 
10:19:21:5550 Rx 1 0x111 s 8 4A 54 02 00 00 00 00 00 
10:19:21:5553 Rx 1 0x112 s 8 03 03 22 22 03 03 02 02 
10:19:21:5555 Rx 1 0x113 s 8 72 A5 0B 00 65 A8 0B 00 
10:19:21:5557 Rx 1 0x114 s 8 00 00 00 00 00 08 80 00 
10:19:21:5560 Rx 1 0x115 s 8 00 00 00 00 00 08 00 00 
10:19:21:5562 Rx 1 0x116 s 8 00 00 00 00 00 00 00 00 
10:19:21:5565 Rx 1 0x117 s 8 06 00 00 00 00 00 00 00 
10:19:21:5567 Rx 1 0x118 s 8 06 EB 06 E5 06 B3 06 BD 
10:19:21:5569 Rx 1 0x120 s 8 CE 06 F4 A8 08 4E FF E1 
10:19:21:5571 Rx 1 0x121 s 8 68 83 0A C8 07 22 15 3E 
10:19:21:5573 Rx 1 0x630 s 1 F0 
10:19:21:5590 Rx 1 0x620 s 3 02 0A 03 
10:19:21:5592 Rx 1 0x100 s 8 55 E1 00 00 00 00 22 00 
10:19:21:5594 Rx 1 0x102 s 8 00 00 FF 00 FF 00 00 00 
10:19:21:5597 Rx 1 0x110 s 8 00 00 00 00 00 00 00 00 
10:19:21:5600 Rx 1 0x111 s 8 4B 54 02 00 00 00 00 00 
10:19:21:5602 Rx 1 0x112 s 8 03 03 22 22 03 03 02 02 
10:19:21:5604 Rx 1 0x113 s 8 77 A5 0B 00 6A A8 0B 00 
10:19:21:5606 Rx 1 0x114 s 8 00 00 00 00 00 08 80 00 
10:19:21:5609 Rx 1 0x115 s 8 00 00 00 00 00 08 00 00 
10:19:21:5611 Rx 1 0x116 s 8 00 00 00 00 00 00 00 00 
10:19:21:5614 Rx 1 0x117 s 8 06 00 00 00 00 00 00 00 
10:19:21:5616 Rx 1 0x118 s 8 06 EB 06 E5 06 B3 06 A3 
10:19:21:5619 Rx 1 0x120 s 8 CE 06 F4 A8 08 4E FF E1 
10:19:21:5621 Rx 1 0x121 s 8 68 83 0A C8 07 22 15 3E 
10:19:21:5623 Rx 1 0x621 s 8 9A 19 7E 43 89 41 64 41 
10:19:21:5625 Rx 1 0x622 s 7 58 22 80 41 31 00 57 
10:19:21:5627 Rx 1 0x623 s 7 76 D0 10 42 10 00 53 
10:19:21:5629 Rx 1 0x624 s 4 33 93 40 44 
10:19:21:5632 Rx 1 0x625 s 8 EC 51 F8 3F E1 7A 54 3F 
10:19:21:5633 Rx 1 0x626 s 4 00 00 E0 3F 
10:19:21:5635 Rx 1 0x627 s 6 18 07 1D 0D 13 13 
10:19:21:5642 Rx 1 0x100 s 8 B2 E2 00 00 00 00 22 00 
10:19:21:5644 Rx 1 0x102 s 8 00 00 FF 00 FF 00 00 00 
10:19:21:5647 Rx 1 0x110 s 8 00 00 00 00 00 00 00 00 
10:19:21:5649 Rx 1 0x111 s 8 4C 54 02 00 00 00 00 00 
10:19:21:5652 Rx 1 0x112 s 8 03 03 22 22 03 03 02 02 
10:19:21:5654 Rx 1 0x113 s 8 7C A5 0B 00 6F A8 0B 00 
10:19:21:5656 Rx 1 0x114 s 8 00 00 00 00 00 08 80 00 
10:19:21:5659 Rx 1 0x115 s 8 00 00 00 00 00 08 00 00 
10:19:21:5661 Rx 1 0x116 s 8 00 00 00 00 00 00 00 00 
10:19:21:5664 Rx 1 0x117 s 8 06 00 00 00 00 00 00 00 
10:19:21:5666 Rx 1 0x118 s 8 06 EB 06 E3 06 B3 06 A3 
10:19:21:5668 Rx 1 0x120 s 8 CE 06 F4 A8 08 4E FF E1 
10:19:21:5671 Rx 1 0x121 s 8 68 83 0A C8 07 22 15 3E 
10:19:21:5692 Rx 1 0x100 s 8 EF E3 00 00 00 00 22 00 
10:19:21:5694 Rx 1 0x102 s 8 00 00 FF 00 FF 00 00 00 
10:19:21:5697 Rx 1 0x110 s 8 00 00 00 00 00 00 00 00 
10:19:21:5699 Rx 1 0x111 s 8 4D 54 02 00 00 00 00 00 
10:19:21:5702 Rx 1 0x112 s 8 03 03 22 22 03 03 02 02 
10:19:21:5704 Rx 1 0x113 s 8 81 A5 0B 00 74 A8 0B 00 
10:19:21:5707 Rx 1 0x114 s 8 00 00 00 00 00 08 80 00 
10:19:21:5709 Rx 1 0x115 s 8 00 00 00 00 00 08 00 00 
10:19:21:5711 Rx 1 0x116 s 8 00 00 00 00 00 00 00 00 
10:19:21:5714 Rx 1 0x117 s 8 06 00 00 00 00 00 00 00 
10:19:21:5716 Rx 1 0x118 s 8 06 EE 06 E3 06 AC 06 A3 
10:19:21:5719 Rx 1 0x120 s 8 CE 06 F4 A8 08 4E FF E1 
10:19:21:5721 Rx 1 0x121 s 8 68 83 0A C8 07 22 15 3E 
10:19:21:5742 Rx 1 0x100 s 8 61 E4 00 00 00 00 22 00 
10:19:21:5745 Rx 1 0x102 s 8 00 00 FF 00 FF 00 00 00 
10:19:21:5747 Rx 1 0x110 s 8 00 00 00 00 00 00 00 00 
10:19:21:5750 Rx 1 0x111 s 8 4E 54 02 00 00 00 00 00 
10:19:21:5752 Rx 1 0x112 s 8 03 03 22 22 03 03 02 02 
10:19:21:5754 Rx 1 0x113 s 8 86 A5 0B 00 79 A8 0B 00 
10:19:21:5757 Rx 1 0x114 s 8 00 00 00 00 00 08 80 00 
10:19:21:5759 Rx 1 0x115 s 8 00 00 00 00 00 08 00 00 
10:19:21:5762 Rx 1 0x116 s 8 00 00 00 00 00 00 00 00 
10:19:21:5764 Rx 1 0x117 s 8 06 00 00 00 00 00 00 00 
10:19:21:5766 Rx 1 0x118 s 8 06 EE 06 E3 06 AC 06 8B 
10:19:21:5769 Rx 1 0x120 s 8 CE 06 F4 A8 08 4E FF E1 
10:19:21:5771 Rx 1 0x121 s 8 68 83 0A C8 07 22 15 3E 
10:19:21:5791 Rx 1 0x100 s 8 3C E5 00 00 00 00 22 00 
10:19:21:5794 Rx 1 0x102 s 8 00 00 FF 00 FF 00 00 00 
10:19:21:5796 Rx 1 0x110 s 8 00 00 00 00 00 00 00 00 
10:19:21:5798 Rx 1 0x111 s 8 4F 54 02 00 00 00 00 00 
10:19:21:5801 Rx 1 0x112 s 8 03 03 22 22 03 03 02 02 
10:19:21:5803 Rx 1 0x113 s 8 8B A5 0B 00 7E A8 0B 00 
10:19:21:5806 Rx 1 0x114 s 8 00 00 00 00 00 08 80 00 
10:19:21:5808 Rx 1 0x115 s 8 00 00 00 00 00 08 00 00 
10:19:21:5811 Rx 1 0x116 s 8 00 00 00 00 00 00 00 00 
10:19:21:5813 Rx 1 0x117 s 8 06 00 00 00 00 00 00 00 
10:19:21:5815 Rx 1 0x118 s 8 06 EE 06 E0 06 AC 06 8B 
10:19:21:5818 Rx 1 0x120 s 8 CE 06 F5 A8 08 4E FF E1 
10:19:21:5820 Rx 1 0x121 s 8 68 83 0A C8 07 22 15 3E 
10:19:21:5821 Rx 1 0x630 s 1 F0 
10:19:21:5841 Rx 1 0x100 s 8 DB E6 00 00 00 00 22 00 
10:19:21:5844 Rx 1 0x102 s 8 00 00 FF 00 FF 00 00 00 
10:19:21:5847 Rx 1 0x110 s 8 00 00 00 00 00 00 00 00 
10:19:21:5849 Rx 1 0x111 s 8 50 54 02 00 00 00 00 00 
10:19:21:5851 Rx 1 0x112 s 8 03 03 22 22 03 03 02 02 
10:19:21:5853 Rx 1 0x113 s 8 90 A5 0B 00 83 A8 0B 00 
10:19:21:5856 Rx 1 0x114 s 8 00 00 00 00 00 08 80 00 
10:19:21:5859 Rx 1 0x115 s 8 00 00 00 00 00 08 00 00 
10:19:21:5861 Rx 1 0x116 s 8 00 00 00 00 00 00 00 00 
10:19:21:5863 Rx 1 0x117 s 8 06 00 00 00 00 00 00 00 
10:19:21:5866 Rx 1 0x118 s 8 06 FD 06 E0 06 A2 06 8B 
10:19:21:5868 Rx 1 0x120 s 8 CE 06 F5 A8 08 4E FF E1 
10:19:21:5870 Rx 1 0x121 s 8 68 83 0A C8 07 22 15 3E 
10:19:21:5891 Rx 1 0x100 s 8 86 E7 00 00 00 00 22 00 
10:19:21:5893 Rx 1 0x102 s 8 00 00 FF 00 FF 00 00 00 
10:19:21:5896 Rx 1 0x110 s 8 00 00 00 00 00 00 00 00 
10:19:21:5898 Rx 1 0x111 s 8 51 54 02 00 00 00 00 00 
10:19:21:5900 Rx 1 0x112 s 8 03 03 22 22 03 03 02 02 
10:19:21:5902 Rx 1 0x113 s 8 95 A5 0B 00 88 A8 0B 00 
10:19:21:5905 Rx 1 0x114 s 8 00 00 00 00 00 08 80 00 
10:19:21:5908 Rx 1 0x115 s 8 00 00 00 00 00 08 00 00 
10:19:21:5910 Rx 1 0x116 s 8 00 00 00 00 00 00 00 00 
10:19:21:5912 Rx 1 0x117 s 8 06 00 00 00 00 00 00 00 
10:19:21:5915 Rx 1 0x118 s 8 06 FD 06 E0 06 A2 06 79 
10:19:21:5917 Rx 1 0x120 s 8 CE 06 F5 A8 08 4E FF E1 
10:19:21:5920 Rx 1 0x121 s 8 68 83 0A C8 07 22 15 3E 
10:19:21:5922 Rx 1 0x610 s 8 15 AE 6F BF 0A D7 4B 3F 
10:19:21:5923 Rx 1 0x611 s 4 F6 28 F4 BF 
10:19:21:5941 Rx 1 0x100 s 8 DA E8 00 00 00 00 22 00 
10:19:21:5943 Rx 1 0x102 s 8 00 00 FF 00 FF 00 00 00 
10:19:21:5946 Rx 1 0x110 s 8 00 00 00 00 00 00 00 00 
10:19:21:5948 Rx 1 0x111 s 8 52 54 02 00 00 00 00 00 
10:19:21:5950 Rx 1 0x112 s 8 03 03 22 22 03 03 02 02 
10:19:21:5953 Rx 1 0x113 s 8 9A A5 0B 00 8D A8 0B 00 
10:19:21:5955 Rx 1 0x114 s 8 00 00 00 00 00 08 80 00 
10:19:21:5957 Rx 1 0x115 s 8 00 00 00 00 00 08 00 00 
10:19:21:5960 Rx 1 0x116 s 8 00 00 00 00 00 00 00 00 
10:19:21:5963 Rx 1 0x117 s 8 06 00 00 00 00 00 00 00 
10:19:21:5965 Rx 1 0x118 s 8 06 FD 06 D9 06 A2 06 79 
10:19:21:5967 Rx 1 0x120 s 8 CE 06 F5 A8 08 4E FF E1 
10:19:21:5969 Rx 1 0x121 s 8 68 83 0A C8 07 22 15 3E 
10:19:21:5991 Rx 1 0x100 s 8 87 E9 00 00 00 00 22 00 
10:19:21:5994 Rx 1 0x102 s 8 00 00 FF 00 FF 00 00 00 
10:19:21:5996 Rx 1 0x110 s 8 00 00 00 00 00 00 00 00 
10:19:21:5998 Rx 1 0x111 s 8 53 54 02 00 00 00 00 00 
10:19:21:6001 Rx 1 0x112 s 8 03 03 22 22 03 03 02 02 
10:19:21:6003 Rx 1 0x113 s 8 9F A5 0B 00 92 A8 0B 00 
10:19:21:6006 Rx 1 0x114 s 8 00 00 00 00 00 08 80 00 
10:19:21:6008 Rx 1 0x115 s 8 00 00 00 00 00 08 00 00 
10:19:21:6010 Rx 1 0x116 s 8 00 00 00 00 00 00 00 00 
10:19:21:6013 Rx 1 0x117 s 8 06 00 00 00 00 00 00 00 
10:19:21:6016 Rx 1 0x118 s 8 06 FD 06 D9 06 95 06 79 
10:19:21:6018 Rx 1 0x120 s 8 A2 06 F5 A8 08 4E FF E1 
10:19:21:6020 Rx 1 0x121 s 8 68 83 0A C8 07 22 15 3E 
10:19:21:6041 Rx 1 0x100 s 8 60 EA 00 00 00 00 22 00 
10:19:21:6044 Rx 1 0x102 s 8 00 00 FF 00 FF 00 00 00 
10:19:21:6046 Rx 1 0x110 s 8 00 00 00 00 00 00 00 00 
10:19:21:6048 Rx 1 0x111 s 8 54 54 02 00 00 00 00 00 
10:19:21:6051 Rx 1 0x112 s 8 03 03 22 22 03 03 02 02 
10:19:21:6053 Rx 1 0x113 s 8 A4 A5 0B 00 97 A8 0B 00 
10:19:21:6056 Rx 1 0x114 s 8 00 00 00 00 00 08 80 00 
10:19:21:6058 Rx 1 0x115 s 8 00 00 00 00 00 08 00 00 
10:19:21:6061 Rx 1 0x116 s 8 00 00 00 00 00 00 00 00 
10:19:21:6063 Rx 1 0x117 s 8 06 00 00 00 00 00 00 00 
10:19:21:6065 Rx 1 0x118 s 8 06 FD 06 E1 06 95 06 66 
10:19:21:6068 Rx 1 0x120 s 8 A2 06 F5 A8 08 4E FF E1 
10:19:21:6070 Rx 1 0x121 s 8 68 83 0A C8 07 22 15 3E 
10:19:21:6071 Rx 1 0x630 s 1 F0 
10:19:21:6090 Rx 1 0x100 s 8 3D EB 00 00 00 00 22 00 
10:19:21:6092 Rx 1 0x102 s 8 00 00 FF 00 FF 00 00 00 
10:19:21:6095 Rx 1 0x110 s 8 00 00 00 00 00 00 00 00 
10:19:21:6097 Rx 1 0x111 s 8 55 54 02 00 00 00 00 00 
10:19:21:6100 Rx 1 0x112 s 8 03 03 22 22 03 03 02 02 
10:19:21:6102 Rx 1 0x113 s 8 A9 A5 0B 00 9C A8 0B 00 
10:19:21:6104 Rx 1 0x114 s 8 00 00 00 00 00 08 80 00 
10:19:21:6107 Rx 1 0x115 s 8 00 00 00 00 00 08 00 00 
10:19:21:6109 Rx 1 0x116 s 8 00 00 00 00 00 00 00 00 
10:19:21:6112 Rx 1 0x117 s 8 06 00 00 00 00 00 00 00 
10:19:21:6114 Rx 1 0x118 s 8 06 FD 06 E1 06 95 06 66 
10:19:21:6116 Rx 1 0x120 s 8 A2 06 F5 A8 08 4E FF E1 
10:19:21:6119 Rx 1 0x121 s 8 68 83 0A C8 07 22 15 3E 
10:19:21:6140 Rx 1 0x100 s 8 B3 EC 00 00 00 00 22 00 
10:19:21:6142 Rx 1 0x102 s 8 00 00 FF 00 FF 00 00 00 
10:19:21:6145 Rx 1 0x110 s 8 00 00 00 00 00 00 00 00 
10:19:21:6147 Rx 1 0x111 s 8 56 54 02 00 00 00 00 00 
10:19:21:6149 Rx 1 0x112 s 8 03 03 22 22 03 03 02 02 
10:19:21:6152 Rx 1 0x113 s 8 AE A5 0B 00 A1 A8 0B 00 
10:19:21:6154 Rx 1 0x114 s 8 00 00 00 00 00 08 80 00 
10:19:21:6157 Rx 1 0x115 s 8 00 00 00 00 00 08 00 00 
10:19:21:6159 Rx 1 0x116 s 8 00 00 00 00 00 00 00 00 
10:19:21:6162 Rx 1 0x117 s 8 06 00 00 00 00 00 00 00 
10:19:21:6164 Rx 1 0x118 s 8 06 FC 06 E1 06 86 06 66 
10:19:21:6166 Rx 1 0x120 s 8 A2 06 F5 A8 08 4E FF E1 
10:19:21:6169 Rx 1 0x121 s 8 68 83 0A C8 07 22 15 3E 
10:19:21:6190 Rx 1 0x100 s 8 EE ED 00 00 00 00 22 00 
10:19:21:6193 Rx 1 0x102 s 8 00 00 FF 00 FF 00 00 00 
10:19:21:6195 Rx 1 0x110 s 8 00 00 00 00 00 00 00 00 
10:19:21:6197 Rx 1 0x111 s 8 57 54 02 00 00 00 00 00 
10:19:21:6200 Rx 1 0x112 s 8 03 03 22 22 03 03 02 02 
10:19:21:6202 Rx 1 0x113 s 8 B3 A5 0B 00 A6 A8 0B 00 
10:19:21:6205 Rx 1 0x114 s 8 00 00 00 00 00 08 80 00 
10:19:21:6207 Rx 1 0x115 s 8 00 00 00 00 00 08 00 00 
10:19:21:6210 Rx 1 0x116 s 8 00 00 00 00 00 00 00 00 
10:19:21:6212 Rx 1 0x117 s 8 06 00 00 00 00 00 00 00 
10:19:21:6214 Rx 1 0x118 s 8 06 FC 06 E4 06 86 06 59 
10:19:21:6216 Rx 1 0x120 s 8 A2 06 F5 A8 08 4E FF E1 
10:19:21:6219 Rx 1 0x121 s 8 68 83 0A C8 07 22 15 3E 
10:19:21:6240 Rx 1 0x100 s 8 09 EE 00 00 00 00 22 00 
10:19:21:6243 Rx 1 0x102 s 8 00 00 FF 00 FF 00 00 00 
10:19:21:6245 Rx 1 0x110 s 8 00 00 00 00 00 00 00 00 
10:19:21:6248 Rx 1 0x111 s 8 58 54 02 00 00 00 00 00 
10:19:21:6250 Rx 1 0x112 s 8 03 03 22 22 03 03 02 02 
10:19:21:6252 Rx 1 0x113 s 8 B8 A5 0B 00 AB A8 0B 00 
10:19:21:6255 Rx 1 0x114 s 8 00 00 00 00 00 08 80 00 
10:19:21:6257 Rx 1 0x115 s 8 00 00 00 00 00 08 00 00 
10:19:21:6260 Rx 1 0x116 s 8 00 00 00 00 00 00 00 00 
10:19:21:6262 Rx 1 0x117 s 8 06 00 00 00 00 00 00 00 
10:19:21:6265 Rx 1 0x118 s 8 06 FE 06 E4 06 86 06 59 
10:19:21:6267 Rx 1 0x120 s 8 A2 06 F5 A8 08 4E FF E1 
10:19:21:6269 Rx 1 0x121 s 8 68 83 0A C8 07 22 15 3E 
10:19:21:6288 Rx 1 0x600 s 8 10 00 11 00 0F 00 19 03 
10:19:21:6290 Rx 1 0x100 s 8 54 EF 00 00 00 00 22 00 
10:19:21:6293 Rx 1 0x102 s 8 00 00 FF 00 FF 00 00 00 
10:19:21:6295 Rx 1 0x110 s 8 00 00 00 00 00 00 00 00 
10:19:21:6298 Rx 1 0x111 s 8 59 54 02 00 00 00 00 00 
10:19:21:6300 Rx 1 0x112 s 8 03 03 22 22 03 03 02 02 
10:19:21:6302 Rx 1 0x113 s 8 BD A5 0B 00 B0 A8 0B 00 
10:19:21:6305 Rx 1 0x114 s 8 00 00 00 00 00 08 80 00 
10:19:21:6307 Rx 1 0x115 s 8 00 00 00 00 00 08 00 00 
10:19:21:6310 Rx 1 0x116 s 8 00 00 00 00 00 00 00 00 
10:19:21:6312 Rx 1 0x117 s 8 06 00 00 00 00 00 00 00 
10:19:21:6315 Rx 1 0x118 s 8 06 FE 06 E4 06 76 06 59 
10:19:21:6317 Rx 1 0x120 s 8 A2 06 F4 A8 08 4E FF E1 
10:19:21:6319 Rx 1 0x121 s 8 68 83 0A C8 07 22 15 3E 
10:19:21:6321 Rx 1 0x601 s 6 62 FF 2B 00 CA 00 
10:19:21:6322 Rx 1 0x630 s 1 F0 
10:19:21:6339 Rx 1 0x100 s 8 B1 F0 00 00 00 00 22 00 
10:19:21:6342 Rx 1 0x102 s 8 00 00 FF 00 FF 00 00 00 
10:19:21:6344 Rx 1 0x110 s 8 00 00 00 00 00 00 00 00 
10:19:21:6347 Rx 1 0x111 s 8 5A 54 02 00 00 00 00 00 
10:19:21:6349 Rx 1 0x112 s 8 03 03 22 22 03 03 02 02 
10:19:21:6351 Rx 1 0x113 s 8 C2 A5 0B 00 B5 A8 0B 00 
10:19:21:6354 Rx 1 0x114 s 8 00 00 00 00 00 08 80 00 
10:19:21:6356 Rx 1 0x115 s 8 00 00 00 00 00 08 00 00 
10:19:21:6359 Rx 1 0x116 s 8 00 00 00 00 00 00 00 00 
10:19:21:6362 Rx 1 0x117 s 8 06 00 00 00 00 00 00 00 
10:19:21:6364 Rx 1 0x118 s 8 06 FE 06 E8 06 76 06 62 
10:19:21:6366 Rx 1 0x120 s 8 A2 06 F4 A8 08 4E FF E1 
10:19:21:6368 Rx 1 0x121 s 8 68 83 0A C8 07 22 15 3E 
10:19:21:6389 Rx 1 0x100 s 8 EC F1 00 00 00 00 22 00 
10:19:21:6392 Rx 1 0x102 s 8 00 00 FF 00 FF 00 00 00 
10:19:21:6394 Rx 1 0x110 s 8 00 00 00 00 00 00 00 00 
10:19:21:6397 Rx 1 0x111 s 8 5B 54 02 00 00 00 00 00 
10:19:21:6399 Rx 1 0x112 s 8 03 03 22 22 03 03 02 02 
10:19:21:6401 Rx 1 0x113 s 8 C7 A5 0B 00 BA A8 0B 00 
10:19:21:6404 Rx 1 0x114 s 8 00 00 00 00 00 08 80 00 
10:19:21:6406 Rx 1 0x115 s 8 00 00 00 00 00 08 00 00 
10:19:21:6409 Rx 1 0x116 s 8 00 00 00 00 00 00 00 00 
10:19:21:6411 Rx 1 0x117 s 8 06 00 00 00 00 00 00 00 
10:19:21:6414 Rx 1 0x118 s 8 06 FE 06 E8 06 76 06 62 
10:19:21:6416 Rx 1 0x120 s 8 A2 06 F4 A8 08 4E FF E1 
10:19:21:6418 Rx 1 0x121 s 8 68 83 0A C8 07 22 15 3E 
10:19:21:6420 Rx 1 0x610 s 8 15 AE 6F BF 0A D7 4B 3F 
10:19:21:6422 Rx 1 0x611 s 4 F6 28 F4 BF 
10:19:21:6438 Rx 1 0x100 s 8 0B F2 00 00 00 00 22 00 
10:19:21:6441 Rx 1 0x102 s 8 00 00 FF 00 FF 00 00 00 
10:19:21:6443 Rx 1 0x110 s 8 00 00 00 00 00 00 00 00 
10:19:21:6446 Rx 1 0x111 s 8 5C 54 02 00 00 00 00 00 
10:19:21:6448 Rx 1 0x112 s 8 03 03 22 22 03 03 02 02 
10:19:21:6450 Rx 1 0x113 s 8 CC A5 0B 00 BF A8 0B 00 
10:19:21:6453 Rx 1 0x114 s 8 00 00 00 00 00 08 80 00 
10:19:21:6455 Rx 1 0x115 s 8 00 00 00 00 00 08 00 00 
10:19:21:6458 Rx 1 0x116 s 8 00 00 00 00 00 00 00 00 
10:19:21:6461 Rx 1 0x117 s 8 06 00 00 00 00 00 00 00 
10:19:21:6463 Rx 1 0x118 s 8 06 FE 06 E8 06 74 06 62 
10:19:21:6465 Rx 1 0x120 s 8 A2 06 F4 A8 08 4E FF E1 
10:19:21:6467 Rx 1 0x121 s 8 68 83 0A C8 07 22 15 3E 
10:19:21:6488 Rx 1 0x100 s 8 56 F3 00 00 00 00 22 00 
10:19:21:6491 Rx 1 0x102 s 8 00 00 FF 00 FF 00 00 00 
10:19:21:6493 Rx 1 0x110 s 8 00 00 00 00 00 00 00 00 
10:19:21:6496 Rx 1 0x111 s 8 5D 54 02 00 00 00 00 00 
10:19:21:6498 Rx 1 0x112 s 8 03 03 22 22 03 03 02 02 
10:19:21:6500 Rx 1 0x113 s 8 D1 A5 0B 00 C4 A8 0B 00 
10:19:21:6503 Rx 1 0x114 s 8 00 00 00 00 00 08 80 00 
10:19:21:6505 Rx 1 0x115 s 8 00 00 00 00 00 08 00 00 
10:19:21:6508 Rx 1 0x116 s 8 00 00 00 00 00 00 00 00 
10:19:21:6510 Rx 1 0x117 s 8 06 00 00 00 00 00 00 00 
10:19:21:6513 Rx 1 0x120 s 8 A2 06 F3 A8 08 4E FF E1 
10:19:21:6515 Rx 1 0x118 s 8 06 FE 06 E5 06 74 06 6C 
10:19:21:6517 Rx 1 0x121 s 8 68 83 0A C8 07 22 15 3E 
10:19:21:6538 Rx 1 0x100 s 8 D8 F4 00 00 00 00 22 00 
10:19:21:6540 Rx 1 0x102 s 8 00 00 FF 00 FF 00 00 00 
10:19:21:6543 Rx 1 0x110 s 8 00 00 00 00 00 00 00 00 
10:19:21:6545 Rx 1 0x111 s 8 5E 54 02 00 00 00 00 00 
10:19:21:6548 Rx 1 0x112 s 8 03 03 22 22 03 03 02 02 
10:19:21:6550 Rx 1 0x113 s 8 D6 A5 0B 00 C9 A8 0B 00 
10:19:21:6553 Rx 1 0x114 s 8 00 00 00 00 00 08 80 00 
10:19:21:6555 Rx 1 0x115 s 8 00 00 00 00 00 08 00 00 
10:19:21:6557 Rx 1 0x116 s 8 00 00 00 00 00 00 00 00 
10:19:21:6560 Rx 1 0x117 s 8 06 00 00 00 00 00 00 00 
10:19:21:6562 Rx 1 0x120 s 8 A2 06 F3 A8 08 4E FF E1 
10:19:21:6565 Rx 1 0x118 s 8 06 FA 06 E5 06 74 06 6C 
10:19:21:6567 Rx 1 0x121 s 8 68 83 0A C8 07 22 15 3E 
10:19:21:6568 Rx 1 0x630 s 1 F0 
10:19:21:6588 Rx 1 0x100 s 8 85 F5 00 00 00 00 22 00 
10:19:21:6591 Rx 1 0x102 s 8 00 00 FF 00 FF 00 00 00 
10:19:21:6593 Rx 1 0x110 s 8 00 00 00 00 00 00 00 00 
10:19:21:6596 Rx 1 0x111 s 8 5F 54 02 00 00 00 00 00 
10:19:21:6598 Rx 1 0x112 s 8 03 03 22 22 03 03 02 02 
10:19:21:6600 Rx 1 0x113 s 8 DB A5 0B 00 CE A8 0B 00 
10:19:21:6603 Rx 1 0x114 s 8 00 00 00 00 00 08 80 00 
10:19:21:6605 Rx 1 0x115 s 8 00 00 00 00 00 08 00 00 
10:19:21:6608 Rx 1 0x116 s 8 00 00 00 00 00 00 00 00 
10:19:21:6610 Rx 1 0x117 s 8 06 00 00 00 00 00 00 00 
10:19:21:6612 Rx 1 0x120 s 8 A2 06 F3 A8 08 4E FF E1 
10:19:21:6615 Rx 1 0x118 s 8 06 FA 06 E5 06 77 06 6C 
10:19:21:6617 Rx 1 0x121 s 8 68 83 0A C8 07 22 15 3E 
10:19:21:6619 Rx 1 0x620 s 3 02 0A 03 
10:19:21:6621 Rx 1 0x621 s 8 9A 19 7E 43 89 41 64 41 
10:19:21:6623 Rx 1 0x622 s 7 08 27 80 41 31 00 57 
10:19:21:6625 Rx 1 0x623 s 7 0C D1 10 42 10 00 53 
10:19:21:6627 Rx 1 0x624 s 4 33 93 40 44 
10:19:21:6629 Rx 1 0x625 s 8 EC 51 F8 3F E1 7A 54 3F 
10:19:21:6631 Rx 1 0x626 s 4 00 00 E0 3F 
10:19:21:6633 Rx 1 0x627 s 6 18 07 1D 0D 13 14 
10:19:21:6638 Rx 1 0x100 s 8 62 F6 00 00 00 00 22 00 
10:19:21:6641 Rx 1 0x102 s 8 00 00 FF 00 FF 00 00 00 
10:19:21:6644 Rx 1 0x110 s 8 00 00 00 00 00 00 00 00 
10:19:21:6646 Rx 1 0x111 s 8 60 54 02 00 00 00 00 00 
10:19:21:6648 Rx 1 0x112 s 8 03 03 22 22 03 03 02 02 
10:19:21:6650 Rx 1 0x113 s 8 E0 A5 0B 00 D3 A8 0B 00 
10:19:21:6653 Rx 1 0x114 s 8 00 00 00 00 00 08 80 00 
10:19:21:6656 Rx 1 0x115 s 8 00 00 00 00 00 08 00 00 
10:19:21:6658 Rx 1 0x116 s 8 00 00 00 00 00 00 00 00 
10:19:21:6661 Rx 1 0x117 s 8 06 00 00 00 00 00 00 00 
10:19:21:6663 Rx 1 0x118 s 8 06 FA 06 E9 06 77 06 6F 
10:19:21:6665 Rx 1 0x120 s 8 A2 06 F3 A8 08 4E FF E1 
10:19:21:6667 Rx 1 0x121 s 8 68 83 0A C8 07 22 15 3E 
10:19:21:6688 Rx 1 0x100 s 8 3F F7 00 00 00 00 22 00 
10:19:21:6690 Rx 1 0x102 s 8 00 00 FF 00 FF 00 00 00 
10:19:21:6692 Rx 1 0x110 s 8 00 00 00 00 00 00 00 00 
10:19:21:6695 Rx 1 0x111 s 8 61 54 02 00 00 00 00 00 
10:19:21:6697 Rx 1 0x112 s 8 03 03 22 22 03 03 02 02 
10:19:21:6699 Rx 1 0x113 s 8 E5 A5 0B 00 D8 A8 0B 00 
10:19:21:6702 Rx 1 0x114 s 8 00 00 00 00 00 08 80 00 
10:19:21:6705 Rx 1 0x115 s 8 00 00 00 00 00 08 00 00 
10:19:21:6707 Rx 1 0x116 s 8 00 00 00 00 00 00 00 00 
10:19:21:6709 Rx 1 0x117 s 8 06 00 00 00 00 00 00 00 
10:19:21:6712 Rx 1 0x120 s 8 A2 06 F3 A8 08 4E FF E1 
10:19:21:6714 Rx 1 0x118 s 8 06 FC 06 E9 06 77 06 6F 
10:19:21:6716 Rx 1 0x121 s 8 68 83 0A C8 07 22 15 3E 
10:19:21:6738 Rx 1 0x100 s 8 63 F8 00 00 00 00 22 00 
10:19:21:6740 Rx 1 0x102 s 8 00 00 FF 00 FF 00 00 00 
10:19:21:6743 Rx 1 0x110 s 8 00 00 00 00 00 00 00 00 
10:19:21:6745 Rx 1 0x111 s 8 62 54 02 00 00 00 00 00 
10:19:21:6747 Rx 1 0x112 s 8 03 03 22 22 03 03 02 02 
10:19:21:6750 Rx 1 0x113 s 8 EA A5 0B 00 DD A8 0B 00 
10:19:21:6752 Rx 1 0x114 s 8 00 00 00 00 00 08 80 00 
10:19:21:6754 Rx 1 0x115 s 8 00 00 00 00 00 08 00 00 
10:19:21:6757 Rx 1 0x116 s 8 00 00 00 00 00 00 00 00 
10:19:21:6760 Rx 1 0x117 s 8 06 00 00 00 00 00 00 00 
10:19:21:6762 Rx 1 0x120 s 8 A2 06 F3 A8 08 4E FF E1 
10:19:21:6764 Rx 1 0x118 s 8 06 FC 06 E9 06 80 06 6F 
10:19:21:6766 Rx 1 0x121 s 8 68 83 0A C8 07 22 15 3E 
10:19:21:6788 Rx 1 0x100 s 8 3E F9 00 00 00 00 22 00 
10:19:21:6790 Rx 1 0x102 s 8 00 00 FF 00 FF 00 00 00 
10:19:21:6792 Rx 1 0x110 s 8 00 00 00 00 00 00 00 00 
10:19:21:6795 Rx 1 0x111 s 8 63 54 02 00 00 00 00 00 
10:19:21:6798 Rx 1 0x112 s 8 03 03 22 22 03 03 02 02 
10:19:21:6800 Rx 1 0x113 s 8 EF A5 0B 00 E2 A8 0B 00 
10:19:21:6802 Rx 1 0x114 s 8 00 00 00 00 00 08 80 00 
10:19:21:6804 Rx 1 0x115 s 8 00 00 00 00 00 08 00 00 
10:19:21:6807 Rx 1 0x116 s 8 00 00 00 00 00 00 00 00 
10:19:21:6810 Rx 1 0x117 s 8 06 00 00 00 00 00 00 00 
10:19:21:6812 Rx 1 0x120 s 8 A2 06 F3 A8 08 4E FF E1 
10:19:21:6814 Rx 1 0x118 s 8 06 FC 06 DD 06 80 06 7C 
10:19:21:6816 Rx 1 0x121 s 8 68 83 0A C8 07 22 15 3E 
10:19:21:6818 Rx 1 0x630 s 1 F0 
10:19:21:6838 Rx 1 0x100 s 8 D9 FA 00 00 00 00 22 00 
10:19:21:6840 Rx 1 0x102 s 8 00 00 FF 00 FF 00 00 00 
10:19:21:6843 Rx 1 0x110 s 8 00 00 00 00 00 00 00 00 
10:19:21:6845 Rx 1 0x111 s 8 64 54 02 00 00 00 00 00 
10:19:21:6848 Rx 1 0x112 s 8 03 03 22 22 03 03 02 02 
10:19:21:6850 Rx 1 0x113 s 8 F4 A5 0B 00 E7 A8 0B 00 
10:19:21:6852 Rx 1 0x114 s 8 00 00 00 00 00 08 80 00 
10:19:21:6855 Rx 1 0x115 s 8 00 00 00 00 00 08 00 00 
10:19:21:6857 Rx 1 0x116 s 8 00 00 00 00 00 00 00 00 
10:19:21:6860 Rx 1 0x117 s 8 06 00 00 00 00 00 00 00 
10:19:21:6862 Rx 1 0x120 s 8 A2 06 F3 A8 08 4E FF E1 
10:19:21:6865 Rx 1 0x118 s 8 07 02 06 DD 06 80 06 7C 
10:19:21:6867 Rx 1 0x121 s 8 68 83 0A C8 07 22 15 3E 
10:19:21:6886 Rx 1 0x100 s 8 84 FB 00 00 00 00 22 00 
10:19:21:6889 Rx 1 0x102 s 8 00 00 FF 00 FF 00 00 00 
10:19:21:6891 Rx 1 0x110 s 8 00 00 00 00 00 00 00 00 
10:19:21:6894 Rx 1 0x111 s 8 65 54 02 00 00 00 00 00 
10:19:21:6896 Rx 1 0x112 s 8 03 03 22 22 03 03 02 02 
10:19:21:6899 Rx 1 0x113 s 8 F9 A5 0B 00 EC A8 0B 00 
10:19:21:6901 Rx 1 0x114 s 8 00 00 00 00 00 08 80 00 
10:19:21:6903 Rx 1 0x115 s 8 00 00 00 00 00 08 00 00 
10:19:21:6906 Rx 1 0x116 s 8 00 00 00 00 00 00 00 00 
10:19:21:6909 Rx 1 0x117 s 8 06 00 00 00 00 00 00 00 
10:19:21:6911 Rx 1 0x120 s 8 A2 06 F3 A8 08 4E FF E1 
10:19:21:6913 Rx 1 0x118 s 8 07 02 06 E0 06 8D 06 7C 
10:19:21:6915 Rx 1 0x121 s 8 68 83 0A C8 07 22 15 3E 
10:19:21:6918 Rx 1 0x610 s 8 85 EB 81 3F F6 28 3C 3E 
10:19:21:6919 Rx 1 0x611 s 4 71 3D 2A C0 
10:19:21:6937 Rx 1 0x100 s 8 0A FC 00 00 00 00 22 00 
10:19:21:6939 Rx 1 0x102 s 8 00 00 FF 00 FF 00 00 00 
10:19:21:6942 Rx 1 0x110 s 8 00 00 00 00 00 00 00 00 
10:19:21:6944 Rx 1 0x111 s 8 66 54 02 00 00 00 00 00 
10:19:21:6946 Rx 1 0x112 s 8 03 03 22 22 03 03 02 02 
10:19:21:6949 Rx 1 0x113 s 8 FE A5 0B 00 F1 A8 0B 00 
10:19:21:6951 Rx 1 0x114 s 8 00 00 00 00 00 08 80 00 
10:19:21:6954 Rx 1 0x115 s 8 00 00 00 00 00 08 00 00 
10:19:21:6956 Rx 1 0x116 s 8 00 00 00 00 00 00 00 00 
10:19:21:6958 Rx 1 0x117 s 8 06 00 00 00 00 00 00 00 
10:19:21:6961 Rx 1 0x120 s 8 A2 06 F3 A8 08 4E FF E1 
10:19:21:6963 Rx 1 0x118 s 8 06 F9 06 E0 06 8D 06 89 
10:19:21:6966 Rx 1 0x121 s 8 68 83 0A C8 07 22 15 3E 
10:19:21:6987 Rx 1 0x100 s 8 57 FD 00 00 00 00 22 00 
10:19:21:6989 Rx 1 0x102 s 8 00 00 FF 00 FF 00 00 00 
10:19:21:6992 Rx 1 0x110 s 8 00 00 00 00 00 00 00 00 
10:19:21:6994 Rx 1 0x111 s 8 67 54 02 00 00 00 00 00 
10:19:21:6996 Rx 1 0x112 s 8 03 03 22 22 03 03 02 02 
10:19:21:6999 Rx 1 0x113 s 8 03 A6 0B 00 F6 A8 0B 00 
10:19:21:7001 Rx 1 0x114 s 8 00 00 00 00 00 08 80 00 
10:19:21:7004 Rx 1 0x115 s 8 00 00 00 00 00 08 00 00 
10:19:21:7006 Rx 1 0x116 s 8 00 00 00 00 00 00 00 00 
10:19:21:7009 Rx 1 0x117 s 8 06 00 00 00 00 00 00 00 
10:19:21:7011 Rx 1 0x120 s 8 D9 06 F3 A8 08 4E FF E1 
10:19:21:7013 Rx 1 0x118 s 8 06 F9 06 E0 06 8D 06 89 
10:19:21:7016 Rx 1 0x121 s 8 68 83 0A C8 07 22 15 3E 
10:19:21:7037 Rx 1 0x100 s 8 B0 FE 00 00 00 00 22 00 
10:19:21:7039 Rx 1 0x102 s 8 00 00 FF 00 FF 00 00 00 
10:19:21:7042 Rx 1 0x110 s 8 00 00 00 00 00 00 00 00 
10:19:21:7044 Rx 1 0x111 s 8 68 54 02 00 00 00 00 00 
10:19:21:7047 Rx 1 0x112 s 8 03 03 22 22 03 03 02 02 
10:19:21:7049 Rx 1 0x113 s 8 08 A6 0B 00 FB A8 0B 00 
10:19:21:7051 Rx 1 0x114 s 8 00 00 00 00 00 08 80 00 
10:19:21:7054 Rx 1 0x115 s 8 00 00 00 00 00 08 00 00 
10:19:21:7056 Rx 1 0x116 s 8 00 00 00 00 00 00 00 00 
10:19:21:7059 Rx 1 0x117 s 8 06 00 00 00 00 00 00 00 
10:19:21:7061 Rx 1 0x120 s 8 D9 06 F3 A8 08 4E FF E1 
10:19:21:7063 Rx 1 0x118 s 8 06 F9 06 E2 06 9B 06 89 
10:19:21:7066 Rx 1 0x121 s 8 68 83 0A C8 07 22 15 3E 
10:19:21:7068 Rx 1 0x600 s 8 0E 00 07 00 FB FF 18 03 
10:19:21:7070 Rx 1 0x601 s 6 6A FF 8F 00 C5 00 
10:19:21:7072 Rx 1 0x630 s 1 F0 
10:19:21:7086 Rx 1 0x100 s 8 ED FF 00 00 00 00 22 00 
10:19:21:7088 Rx 1 0x102 s 8 00 00 FF 00 FF 00 00 00 
10:19:21:7091 Rx 1 0x110 s 8 00 00 00 00 00 00 00 00 
10:19:21:7093 Rx 1 0x111 s 8 69 54 02 00 00 00 00 00 
10:19:21:7095 Rx 1 0x112 s 8 03 03 22 22 03 03 02 02 
